Time [s],Packet ID,MOSI,MISO
0.834663224000000,0,,0xC843
0.834679992000000,0,,0xD7E0
0.834696736000000,0,,0xD6B0
0.834713640000000,0,,0x9D62
0.834730536000000,0,,0xE374
0.834747384000000,0,,0xE4C2
0.834764168000000,0,,0xEB63
0.834780912000000,0,,0xD106
0.834797656000000,0,,0xD6C1
0.834815592000000,0,,0xD00D
0.834832648000000,0,,0xCCCF
0.834849408000000,0,,0xDC38
0.834866232000000,0,,0xDBEE
0.834883192000000,0,,0xAFC8
0.834900032000000,0,,0xE745
0.834916808000000,0,,0xE764
0.834933576000000,0,,0xEF62
0.834950480000000,0,,0xD55C
0.834967272000000,0,,0xD976
0.834985224000000,0,,0xD00D
0.835002160000000,0,,0xCCCF
0.835019200000000,0,,0xDCD8
0.835036352000000,0,,0xDF3B
0.835053352000000,0,,0xC100
0.835070080000000,0,,0xE9AD
0.835086808000000,0,,0xE933
0.835103592000000,0,,0xF1D1
0.835120272000000,0,,0xD806
0.835137000000000,0,,0xDB11
0.835155168000000,0,,0xD00D
0.835171992000000,0,,0xD07E
0.835188760000000,0,,0xE15D
0.835205608000000,0,,0xE1AA
0.835222584000000,0,,0xCFD6
0.835239360000000,0,,0xEA15
0.835256376000000,0,,0xEB05
0.835273352000000,0,,0xF30D
0.835290080000000,0,,0xD975
0.835307608000000,0,,0xDC61
0.835326040000000,0,,0xD00D
0.835343136000000,0,,0xD07E
0.835359688000000,0,,0xE524
0.835376440000000,0,,0xE3F3
0.835393224000000,0,,0xDA3B
0.835410016000000,0,,0xED64
0.835426816000000,0,,0xECA6
0.835443600000000,0,,0xF325
0.835460664000000,0,,0xDBA0
0.835477544000000,0,,0xDD3D
0.835495528000000,0,,0xD00D
0.835512448000000,0,,0xCFB8
0.835529392000000,0,,0xE74E
0.835546248000000,0,,0xE680
0.835563312000000,0,,0xD5AF
0.835579824000000,0,,0xF008
0.835596408000000,0,,0xEE3F
0.835613248000000,0,,0xF3FB
0.835629952000000,0,,0xDC8C
0.835646776000000,0,,0xDDA6
0.835665008000000,0,,0xD00D
0.835681760000000,0,,0xD683
0.835698568000000,0,,0xE578
0.835715416000000,0,,0xE2B6
0.835732192000000,0,,0xC7E6
0.835748960000000,0,,0xEF41
0.835765784000000,0,,0xEE5E
0.835782816000000,0,,0xF5AD
0.835799672000000,0,,0xDEF0
0.835816440000000,0,,0xDFD0
0.835834448000000,0,,0xD00D
0.835851072000000,0,,0xD683
0.835867872000000,0,,0xE2B5
0.835884792000000,0,,0xE2C7
0.835901272000000,0,,0xB587
0.835918248000000,0,,0xEE2D
0.835935016000000,0,,0xEB43
0.835952016000000,0,,0xF5D4
0.835968912000000,0,,0xDEFC
0.835985752000000,0,,0xE03B
0.836003920000000,0,,0xD00D
0.836020704000000,0,,0xD6DF
0.836037456000000,0,,0xE2DE
0.836054208000000,0,,0xE339
0.836071040000000,0,,0xA06F
0.836087872000000,0,,0xED7F
0.836104824000000,0,,0xEAC6
0.836121376000000,0,,0xF68C
0.836138280000000,0,,0xE04D
0.836155024000000,0,,0xE22C
0.836173080000000,0,,0xD00D
0.836189848000000,0,,0xD6DF
0.836206888000000,0,,0xDBDC
0.836223384000000,0,,0xDCAB
0.836240120000000,0,,0x8FA8
0.836256944000000,0,,0xED02
0.836273752000000,0,,0xED81
0.836290824000000,0,,0xF820
0.836308208000000,0,,0xE255
0.836326648000000,0,,0xE25B
0.836344800000000,0,,0xD00D
0.836361584000000,0,,0xD40B
0.836378328000000,0,,0xB5BE
0.836395368000000,0,,0xB577
0.836411856000000,0,,0x87DA
0.836428640000000,0,,0xDE73
0.836445192000000,0,,0xDC19
0.836461808000000,0,,0xE560
0.836478592000000,0,,0xCF60
0.836495344000000,0,,0xC026
0.836513640000000,0,,0xD00D
0.836530368000000,0,,0x93C2
0.836547168000000,0,,0x95D6
0.836563968000000,0,,0x95B3
0.836580944000000,0,,0x84E7
0.836597640000000,0,,0xC296
0.836614776000000,0,,0xB4EE
0.836633352000000,0,,0xC25B
0.836652816000000,0,,0xA84B
0.836671784000000,0,,0x9AAF
0.836690080000000,0,,0xD00D
0.836707128000000,0,,0x8997
0.836724152000000,0,,0x89FC
0.836741400000000,0,,0x8A36
0.836758200000000,0,,0x837F
0.836774920000000,0,,0xB090
0.836791656000000,0,,0x9B11
0.836808400000000,0,,0xAD41
0.836825120000000,0,,0x9111
0.836841960000000,0,,0x8B63
0.836860152000000,0,,0xD00D
0.836876968000000,0,,0x8997
0.836893712000000,0,,0x85D0
0.836910488000000,0,,0x8638
0.836927216000000,0,,0x82AC
0.836943976000000,0,,0xA98D
0.836961152000000,0,,0x8F7C
0.836977624000000,0,,0xA57F
0.836994208000000,0,,0x88F9
0.837010736000000,0,,0x867A
0.837028816000000,0,,0xD00D
0.837045752000000,0,,0x8656
0.837062896000000,0,,0x83E2
0.837079712000000,0,,0x8471
0.837096488000000,0,,0x820D
0.837113336000000,0,,0xA582
0.837130152000000,0,,0x89D6
0.837146976000000,0,,0xA10A
0.837163720000000,0,,0x85BA
0.837180488000000,0,,0x8452
0.837198712000000,0,,0xD00D
0.837215512000000,0,,0x848A
0.837232248000000,0,,0x82FE
0.837249144000000,0,,0x83A1
0.837266032000000,0,,0x818D
0.837283392000000,0,,0xA3FD
0.837301416000000,0,,0x867F
0.837318224000000,0,,0x9DB0
0.837335024000000,0,,0x83A3
0.837351776000000,0,,0x8372
0.837369992000000,0,,0xD00D
0.837386712000000,0,,0x834F
0.837403568000000,0,,0x8061
0.837420304000000,0,,0x821E
0.837437128000000,0,,0x813B
0.837453912000000,0,,0xA22A
0.837470736000000,0,,0x83DD
0.837487832000000,0,,0x9AC7
0.837504648000000,0,,0x8195
0.837521464000000,0,,0x8092
0.837539440000000,0,,0xD00D
0.837556088000000,0,,0x7EDA
0.837572832000000,0,,0x7F66
0.837589800000000,0,,0x800B
0.837606584000000,0,,0x80E1
0.837623408000000,0,,0xA045
0.837640160000000,0,,0x82FE
0.837657048000000,0,,0x9A0F
0.837673840000000,0,,0x80AF
0.837690664000000,0,,0x7FC0
0.837708936000000,0,,0xD00D
0.837725736000000,0,,0x7EDA
0.837742552000000,0,,0x7E7C
0.837759344000000,0,,0x7F1E
0.837776104000000,0,,0x8050
0.837792896000000,0,,0x9E7C
0.837810032000000,0,,0x8211
0.837826768000000,0,,0x992B
0.837843608000000,0,,0x7EBE
0.837860384000000,0,,0x7E2D
0.837878432000000,0,,0xD00D
0.837895096000000,0,,0x7C3C
0.837912128000000,0,,0x7C7C
0.837928800000000,0,,0x7D1E
0.837945568000000,0,,0x7F5D
0.837962416000000,0,,0x9FB3
0.837979192000000,0,,0x832C
0.837996008000000,0,,0x9917
0.838012928000000,0,,0x7CE7
0.838029976000000,0,,0x7B69
0.838048040000000,0,,0xD00D
0.838064704000000,0,,0x7C3C
0.838081744000000,0,,0x7AAB
0.838098448000000,0,,0x7AA7
0.838115656000000,0,,0x7FA7
0.838132696000000,0,,0xA619
0.838149960000000,0,,0x924D
0.838166880000000,0,,0xA378
0.838183680000000,0,,0x8871
0.838200520000000,0,,0x8007
0.838219000000000,0,,0xD00D
0.838236168000000,0,,0x94D5
0.838253288000000,0,,0x9492
0.838270216000000,0,,0x9032
0.838287808000000,0,,0x7DF7
0.838306080000000,0,,0xC01A
0.838322952000000,0,,0xB9DF
0.838339688000000,0,,0xC64A
0.838356408000000,0,,0xB005
0.838373128000000,0,,0xA8C4
0.838391368000000,0,,0xD00D
0.838408120000000,0,,0xB986
0.838424816000000,0,,0xB9ED
0.838441632000000,0,,0xB5E0
0.838458328000000,0,,0x7F68
0.838475056000000,0,,0xD7A0
0.838491808000000,0,,0xD56C
0.838508560000000,0,,0xDDCA
0.838525448000000,0,,0xCA69
0.838542136000000,0,,0xC877
0.838559816000000,0,,0xD00D
0.838576528000000,0,,0xB986
0.838593568000000,0,,0xCE6C
0.838610416000000,0,,0xCCC8
0.838627464000000,0,,0x8A66
0.838643960000000,0,,0xE1DB
0.838660720000000,0,,0xE029
0.838677512000000,0,,0xE714
0.838694272000000,0,,0xCFF6
0.838710992000000,0,,0xD30F
0.838729248000000,0,,0xD00D
0.838745984000000,0,,0xC843
0.838762808000000,0,,0xD7E0
0.838779632000000,0,,0xD6B0
0.838796368000000,0,,0x9D62
0.838813320000000,0,,0xE374
0.838830000000000,0,,0xE4C2
0.838847064000000,0,,0xEB63
0.838863928000000,0,,0xD106
0.838880696000000,0,,0xD6C1
0.838898720000000,0,,0xD00D
0.838915320000000,0,,0xCCCF
0.838932112000000,0,,0xDC38
0.838949048000000,0,,0xDBEE
0.838965968000000,0,,0xAFC8
0.838982872000000,0,,0xE745
0.838999680000000,0,,0xE764
0.839016416000000,0,,0xEF62
0.839033360000000,0,,0xD55C
0.839050008000000,0,,0xD976
0.839068240000000,0,,0xD00D
0.839085056000000,0,,0xCCCF
0.839101776000000,0,,0xDCD8
0.839118576000000,0,,0xDF3B
0.839135320000000,0,,0xC100
0.839152112000000,0,,0xE9AD
0.839169112000000,0,,0xE933
0.839185920000000,0,,0xF1D1
0.839202864000000,0,,0xD806
0.839219664000000,0,,0xDB11
0.839237688000000,0,,0xD00D
0.839254344000000,0,,0xD07E
0.839271544000000,0,,0xE15D
0.839290184000000,0,,0xE1AA
0.839306928000000,0,,0xCFD6
0.839323640000000,0,,0xEA05
0.839377768000000,0,,0xEB0D
0.839434160000000,0,,0xF175
0.839489120000000,0,,0xD861
0.839529232000000,0,,0xDC61
0.839547456000000,0,,0xD00D
0.839564296000000,0,,0xD07E
0.839580992000000,0,,0xE524
0.839597872000000,0,,0xE3F3
0.839614736000000,0,,0xDA3B
0.839631536000000,0,,0xED64
0.839648688000000,0,,0xECA6
0.839665768000000,0,,0xF325
0.839682592000000,0,,0xDBA0
0.839699656000000,0,,0xDD3D
0.839718016000000,0,,0xD00D
0.839735208000000,0,,0xD25E
0.839752168000000,0,,0xE6FE
0.839769240000000,0,,0xE5B3
0.839786176000000,0,,0xDFB1
0.839802936000000,0,,0xEF8F
0.839819696000000,0,,0xEDA2
0.839836416000000,0,,0xF434
0.839853472000000,0,,0xDC8C
0.839870192000000,0,,0xDDA6
0.839888192000000,0,,0xD00D
0.839904912000000,0,,0xD421
0.839921704000000,0,,0xE513
0.839938536000000,0,,0xE5D1
0.839955416000000,0,,0xE00F
0.839972216000000,0,,0xEFE0
0.839989064000000,0,,0xEDC4
0.840005896000000,0,,0xF4F5
0.840022640000000,0,,0xD97C
0.840039400000000,0,,0xDDDC
0.840057832000000,0,,0xD00D
0.840074672000000,0,,0xD4E4
0.840091680000000,0,,0xE616
0.840108624000000,0,,0xE4F0
0.840125368000000,0,,0xDAC7
0.840142096000000,0,,0xEF76
0.840159056000000,0,,0xED6C
0.840175912000000,0,,0xF1FB
0.840192696000000,0,,0xDA3F
0.840209568000000,0,,0xDE58
0.840227584000000,0,,0xD00D
0.840244256000000,0,,0xD4E4
0.840261312000000,0,,0xE1CF
0.840278560000000,0,,0xE4AD
0.840296064000000,0,,0xCFA9
0.840312944000000,0,,0xEFBA
0.840329608000000,0,,0xEE70
0.840346440000000,0,,0xF476
0.840363488000000,0,,0xDDEF
0.840380304000000,0,,0xDFFA
0.840398336000000,0,,0xD00D
0.840415008000000,0,,0xD664
0.840431800000000,0,,0xE12C
0.840448544000000,0,,0xE432
0.840465464000000,0,,0xBFE8
0.840482440000000,0,,0xEEC8
0.840499320000000,0,,0xEDE3
0.840516088000000,0,,0xF2F6
0.840532944000000,0,,0xDE7D
0.840549616000000,0,,0xE00C
0.840567688000000,0,,0xD00D
0.840584632000000,0,,0xD39C
0.840601416000000,0,,0xE30D
0.840618176000000,0,,0xE3BC
0.840634912000000,0,,0xADB2
0.840651704000000,0,,0xEE26
0.840668528000000,0,,0xEDFB
0.840685496000000,0,,0xF349
0.840702456000000,0,,0xDF40
0.840719280000000,0,,0xDDD0
0.840737272000000,0,,0xD00D
0.840753880000000,0,,0xD39C
0.840770616000000,0,,0xE221
0.840787624000000,0,,0xE2F2
0.840804120000000,0,,0x98C1
0.840820904000000,0,,0xEDA9
0.840837704000000,0,,0xEA6B
0.840854624000000,0,,0xF681
0.840871376000000,0,,0xE144
0.840888128000000,0,,0xDFC4
0.840906368000000,0,,0xD00D
0.840923112000000,0,,0xC8F9
0.840939976000000,0,,0xCDC3
0.840956744000000,0,,0xCD18
0.840973584000000,0,,0x8B9E
0.840990288000000,0,,0xE768
0.841007144000000,0,,0xE299
0.841023984000000,0,,0xF3EE
0.841040880000000,0,,0xDE69
0.841057632000000,0,,0xD6B3
0.841075608000000,0,,0xD00D
0.841092424000000,0,,0xC8F9
0.841109240000000,0,,0xA495
0.841126136000000,0,,0xA363
0.841143104000000,0,,0x8658
0.841160040000000,0,,0xD123
0.841177056000000,0,,0xC665
0.841193992000000,0,,0xD546
0.841210856000000,0,,0xBB8E
0.841227680000000,0,,0xAC61
0.841245944000000,0,,0xD00D
0.841263120000000,0,,0x8D65
0.841280928000000,0,,0x8E95
0.841297864000000,0,,0x8E5B
0.841314704000000,0,,0x8435
0.841331408000000,0,,0xB93B
0.841347936000000,0,,0xA743
0.841364608000000,0,,0xB720
0.841381424000000,0,,0x99D7
0.841398184000000,0,,0x916E
0.841416416000000,0,,0xD00D
0.841433176000000,0,,0x87D4
0.841449984000000,0,,0x87B2
0.841466752000000,0,,0x8802
0.841483512000000,0,,0x831A
0.841500288000000,0,,0xACBE
0.841517056000000,0,,0x949A
0.841534144000000,0,,0xA87A
0.841550960000000,0,,0x8BE5
0.841567944000000,0,,0x88B4
0.841586128000000,0,,0xD00D
0.841603256000000,0,,0x87D4
0.841620384000000,0,,0x84C2
0.841637408000000,0,,0x8540
0.841654200000000,0,,0x8266
0.841670960000000,0,,0xA684
0.841687776000000,0,,0x8C46
0.841704512000000,0,,0xA1E2
0.841721280000000,0,,0x870B
0.841738312000000,0,,0x8540
0.841756352000000,0,,0xD00D
0.841773176000000,0,,0x8555
0.841789920000000,0,,0x836A
0.841806672000000,0,,0x8404
0.841823592000000,0,,0x81D4
0.841840664000000,0,,0xA536
0.841857528000000,0,,0x8822
0.841874296000000,0,,0x9E74
0.841891056000000,0,,0x84DF
0.841907936000000,0,,0x83C0
0.841925808000000,0,,0xD00D
0.841942520000000,0,,0x82B6
0.841959600000000,0,,0x8266
0.841976392000000,0,,0x8349
0.841993104000000,0,,0x8169
0.842010000000000,0,,0xA21E
0.842026760000000,0,,0x8553
0.842043536000000,0,,0x9B7C
0.842060632000000,0,,0x8235
0.842077472000000,0,,0x8137
0.842095472000000,0,,0xD00D
0.842112112000000,0,,0x82B6
0.842128872000000,0,,0x8127
0.842145680000000,0,,0x8078
0.842162736000000,0,,0x8126
0.842179456000000,0,,0xA118
0.842196208000000,0,,0x842B
0.842213056000000,0,,0x9AB5
0.842229816000000,0,,0x8130
0.842246800000000,0,,0x802A
0.842265120000000,0,,0xD00D
0.842281760000000,0,,0x7E9C
0.842298520000000,0,,0x7F16
0.842315264000000,0,,0x7FBA
0.842332024000000,0,,0x809D
0.842348784000000,0,,0xA0CD
0.842365472000000,0,,0x827F
0.842382528000000,0,,0x99D2
0.842399040000000,0,,0x7FF2
0.842415776000000,0,,0x7F3D
0.842433880000000,0,,0xD00D
0.842450640000000,0,,0x7E9C
0.842467424000000,0,,0x7DC2
0.842484256000000,0,,0x7E61
0.842501136000000,0,,0x8010
0.842517848000000,0,,0xA01A
0.842534288000000,0,,0x8185
0.842551040000000,0,,0x9903
0.842567848000000,0,,0x7DB3
0.842584504000000,0,,0x7D2F
0.842602800000000,0,,0xD00D
0.842619616000000,0,,0x7D63
0.842636440000000,0,,0x7B16
0.842653296000000,0,,0x7BB9
0.842670152000000,0,,0x7F86
0.842687008000000,0,,0xA179
0.842703736000000,0,,0x85EA
0.842721136000000,0,,0x9AF7
0.842738256000000,0,,0x7DCD
0.842755424000000,0,,0x7A38
0.842773720000000,0,,0xD00D
0.842791208000000,0,,0x7AD1
0.842808176000000,0,,0x8071
0.842825152000000,0,,0x7FA1
0.842841832000000,0,,0x7E9E
0.842858568000000,0,,0xB30B
0.842875440000000,0,,0xA024
0.842892144000000,0,,0xB12A
0.842909256000000,0,,0x98F9
0.842926032000000,0,,0x8F75
0.842944136000000,0,,0xD00D
0.842960720000000,0,,0x8019
0.842977544000000,0,,0xA351
0.842994376000000,0,,0xA4DB
0.843011360000000,0,,0x7DEE
0.843028112000000,0,,0xCC8D
0.843044952000000,0,,0xC380
0.843061784000000,0,,0xD456
0.843078584000000,0,,0xBE7E
0.843095360000000,0,,0xBA05
0.843113744000000,0,,0xD00D
0.843130728000000,0,,0xC28E
0.843147912000000,0,,0xC2AB
0.843164912000000,0,,0xC4C4
0.843181848000000,0,,0x8330
0.843198584000000,0,,0xDCC6
0.843215776000000,0,,0xD7D4
0.843232632000000,0,,0xE67C
0.843250368000000,0,,0xD030
0.843267152000000,0,,0xCF33
0.843285080000000,0,,0xD00D
0.843302048000000,0,,0xCF6B
0.843318824000000,0,,0xDCD8
0.843335672000000,0,,0xDF3B
0.843352512000000,0,,0xC100
0.843369200000000,0,,0xE9AD
0.843385984000000,0,,0xE933
0.843402776000000,0,,0xF1D1
0.843419888000000,0,,0xD806
0.843436744000000,0,,0xDB11
0.843454736000000,0,,0xD00D
0.843471416000000,0,,0xCF6B
0.843488200000000,0,,0xE15D
0.843504952000000,0,,0xE1AA
0.843521960000000,0,,0xCFD6
0.843538832000000,0,,0xEA15
0.843555656000000,0,,0xEB05
0.843572512000000,0,,0xF30D
0.843589232000000,0,,0xD975
0.843606000000000,0,,0xDC61
0.843624264000000,0,,0xD00D
0.843641016000000,0,,0xCFB8
0.843657784000000,0,,0xE524
0.843674512000000,0,,0xE3F3
0.843691256000000,0,,0xDA3B
0.843708080000000,0,,0xED64
0.843724816000000,0,,0xECA6
0.843741808000000,0,,0xF325
0.843758768000000,0,,0xDBA0
0.843775544000000,0,,0xDD3D
0.843793592000000,0,,0xD00D
0.843810256000000,0,,0xCFB8
0.843827000000000,0,,0xE6FE
0.843843976000000,0,,0xE5B3
0.843860456000000,0,,0xDFB1
0.843877224000000,0,,0xEF8F
0.843893944000000,0,,0xEDA2
0.843910768000000,0,,0xF434
0.843927576000000,0,,0xDC8C
0.843944336000000,0,,0xDDA6
0.843962712000000,0,,0xD00D
0.843979504000000,0,,0xD421
0.843996280000000,0,,0xE513
0.844013120000000,0,,0xE5D1
0.844029824000000,0,,0xE00F
0.844046568000000,0,,0xEFE0
0.844063336000000,0,,0xEDC4
0.844080376000000,0,,0xF4F5
0.844097128000000,0,,0xD97C
0.844113560000000,0,,0xDDDC
0.844131536000000,0,,0xD00D
0.844148192000000,0,,0xD4E4
0.844165096000000,0,,0xE616
0.844182272000000,0,,0xE4F0
0.844199072000000,0,,0xDAC7
0.844216432000000,0,,0xEF6C
0.844264192000000,0,,0xE9FB
0.844320672000000,0,,0xF23F
0.844373720000000,0,,0xDE58
0.844422160000000,0,,0xDE58
0.844440112000000,0,,0xD00D
0.844457200000000,0,,0xD4E4
0.844473904000000,0,,0xE1CF
0.844490680000000,0,,0xE4AD
0.844507504000000,0,,0xCFA9
0.844524208000000,0,,0xEFBA
0.844540984000000,0,,0xEE70
0.844557776000000,0,,0xF476
0.844574752000000,0,,0xDDEF
0.844591216000000,0,,0xDFFA
0.844609304000000,0,,0xD00D
0.844626184000000,0,,0xD544
0.844643368000000,0,,0xE12C
0.844660048000000,0,,0xE432
0.844677200000000,0,,0xBFE8
0.844693896000000,0,,0xEEC8
0.844710648000000,0,,0xEDE3
0.844727416000000,0,,0xF2F6
0.844744168000000,0,,0xDE7D
0.844760960000000,0,,0xE00C
0.844779256000000,0,,0xD00D
0.844796040000000,0,,0xD544
0.844812784000000,0,,0xE30D
0.844829544000000,0,,0xE3BC
0.844846448000000,0,,0xADB2
0.844863248000000,0,,0xEE26
0.844879968000000,0,,0xEDFB
0.844897032000000,0,,0xF349
0.844913800000000,0,,0xDF40
0.844930664000000,0,,0xDDD0
0.844948712000000,0,,0xD00D
0.844965272000000,0,,0xD5C3
0.844982056000000,0,,0xE221
0.844999000000000,0,,0xE2F2
0.845015888000000,0,,0x98C1
0.845032824000000,0,,0xEDA9
0.845049624000000,0,,0xEA6B
0.845066368000000,0,,0xF681
0.845083352000000,0,,0xE144
0.845099944000000,0,,0xDFC4
0.845118144000000,0,,0xD00D
0.845134928000000,0,,0xD5C3
0.845151648000000,0,,0xCDC3
0.845168552000000,0,,0xCD18
0.845185280000000,0,,0x8B9E
0.845202056000000,0,,0xE768
0.845219192000000,0,,0xE299
0.845235984000000,0,,0xF3EE
0.845252976000000,0,,0xDE69
0.845269552000000,0,,0xD6B3
0.845287536000000,0,,0xD00D
0.845305984000000,0,,0xA1BA
0.845324320000000,0,,0xA495
0.845341096000000,0,,0xA363
0.845357872000000,0,,0x8658
0.845374592000000,0,,0xD123
0.845391336000000,0,,0xC665
0.845408264000000,0,,0xD546
0.845425016000000,0,,0xBB8E
0.845441776000000,0,,0xAC61
0.845459936000000,0,,0xD00D
0.845476864000000,0,,0xA1BA
0.845493840000000,0,,0x8E95
0.845510384000000,0,,0x8E5B
0.845527152000000,0,,0x8435
0.845544104000000,0,,0xB93B
0.845560912000000,0,,0xA743
0.845578048000000,0,,0xB720
0.845594928000000,0,,0x99D7
0.845612024000000,0,,0x916E
0.845630104000000,0,,0xD00D
0.845646768000000,0,,0x87D4
0.845663544000000,0,,0x87B2
0.845680264000000,0,,0x8802
0.845697024000000,0,,0x831A
0.845714056000000,0,,0xACBE
0.845730880000000,0,,0x949A
0.845747744000000,0,,0xA87A
0.845764600000000,0,,0x8BE5
0.845781384000000,0,,0x88B4
0.845799424000000,0,,0xD00D
0.845816360000000,0,,0x87D4
0.845833096000000,0,,0x84C2
0.845849880000000,0,,0x8540
0.845866712000000,0,,0x8266
0.845883544000000,0,,0xA684
0.845900248000000,0,,0x8C46
0.845917064000000,0,,0xA1E2
0.845934144000000,0,,0x870B
0.845950952000000,0,,0x8540
0.845969024000000,0,,0xD00D
0.845985704000000,0,,0x83F0
0.846002464000000,0,,0x836A
0.846019200000000,0,,0x8404
0.846036192000000,0,,0x81D4
0.846053016000000,0,,0xA536
0.846069704000000,0,,0x8822
0.846086544000000,0,,0x9E74
0.846103440000000,0,,0x84DF
0.846120208000000,0,,0x83C0
0.846138464000000,0,,0xD00D
0.846155216000000,0,,0x83F0
0.846171968000000,0,,0x8266
0.846188728000000,0,,0x8349
0.846205544000000,0,,0x8169
0.846222320000000,0,,0xA21E
0.846239064000000,0,,0x8553
0.846256288000000,0,,0x9B7C
0.846273136000000,0,,0x8235
0.846290192000000,0,,0x8137
0.846309344000000,0,,0xD00D
0.846327000000000,0,,0x7F47
0.846343824000000,0,,0x8127
0.846360712000000,0,,0x8078
0.846377448000000,0,,0x8126
0.846394280000000,0,,0xA118
0.846411128000000,0,,0x842B
0.846427944000000,0,,0x9AB5
0.846445048000000,0,,0x8130
0.846461712000000,0,,0x802A
0.846479680000000,0,,0xD00D
0.846496320000000,0,,0x7F47
0.846513160000000,0,,0x7F16
0.846529912000000,0,,0x7FBA
0.846546952000000,0,,0x809D
0.846563736000000,0,,0xA0CD
0.846580496000000,0,,0x827F
0.846597256000000,0,,0x99D2
0.846613984000000,0,,0x7FF2
0.846630680000000,0,,0x7F3D
0.846648928000000,0,,0xD00D
0.846665832000000,0,,0x7D63
0.846682936000000,0,,0x7DC2
0.846699608000000,0,,0x7E61
0.846716328000000,0,,0x8010
0.846733096000000,0,,0xA01A
0.846749824000000,0,,0x8185
0.846766816000000,0,,0x9903
0.846783312000000,0,,0x7DB3
0.846800056000000,0,,0x7D2F
0.846818096000000,0,,0xD00D
0.846834936000000,0,,0x7D63
0.846851720000000,0,,0x7B16
0.846868512000000,0,,0x7BB9
0.846885376000000,0,,0x7F86
0.846902392000000,0,,0xA179
0.846919264000000,0,,0x85EA
0.846936072000000,0,,0x9AF7
0.846952856000000,0,,0x7DCD
0.846969560000000,0,,0x7A38
0.846987848000000,0,,0xD00D
0.847004536000000,0,,0x8019
0.847021360000000,0,,0x8071
0.847038104000000,0,,0x7FA1
