Time [s],Packet ID,MOSI,MISO
0.998505576000000,0,,0x807A
0.998522880000000,0,,0x808A
0.998540536000000,0,,0x810D
0.998563896000000,0,,0x80F4
0.998582536000000,0,,0xA1FB
0.998600600000000,0,,0x86EA
0.998618336000000,0,,0x9FA4
0.998635624000000,0,,0x8171
0.998653496000000,0,,0x808B
0.998674520000000,0,,0xD00D
0.998694936000000,0,,0x807D
0.998716480000000,0,,0x8089
0.998736600000000,0,,0x810D
0.998754824000000,0,,0x80F6
0.998772344000000,0,,0xA1D7
0.998792224000000,0,,0x86FB
0.998810256000000,0,,0x9E19
0.998827592000000,0,,0x816E
0.998845280000000,0,,0x808C
0.998863768000000,0,,0xD00D
0.998880728000000,0,,0x807C
0.998897936000000,0,,0x8088
0.998914616000000,0,,0x810D
0.998931952000000,0,,0x80F7
0.998949336000000,0,,0xA2FB
0.998966072000000,0,,0x86DE
0.998983072000000,0,,0x9DA8
0.999001176000000,0,,0x8172
0.999018720000000,0,,0x808F
0.999037232000000,0,,0xD00D
0.999055800000000,0,,0x8079
0.999074504000000,0,,0x8089
0.999092104000000,0,,0x810E
0.999110640000000,0,,0x80F8
0.999128704000000,0,,0xA3E9
0.999146288000000,0,,0x86F1
0.999163904000000,0,,0x9DF2
0.999182648000000,0,,0x817A
0.999200792000000,0,,0x8091
0.999220136000000,0,,0xD00D
0.999238512000000,0,,0x8079
0.999256112000000,0,,0x8089
0.999274688000000,0,,0x810F
0.999292840000000,0,,0x80F8
0.999310608000000,0,,0xA3E7
0.999328320000000,0,,0x87D4
0.999345848000000,0,,0x9D81
0.999363584000000,0,,0x8179
0.999381336000000,0,,0x8092
0.999399808000000,0,,0xD00D
0.999416832000000,0,,0x807C
0.999434256000000,0,,0x8089
0.999451464000000,0,,0x810D
0.999469096000000,0,,0x80F7
0.999486368000000,0,,0xA3B8
0.999504224000000,0,,0x88DE
0.999522096000000,0,,0x9D50
0.999539816000000,0,,0x8177
0.999556536000000,0,,0x8092
0.999575856000000,0,,0xD00D
0.999593496000000,0,,0x807C
0.999611512000000,0,,0x8085
0.999629384000000,0,,0x8107
0.999648784000000,0,,0x80F4
0.999669112000000,0,,0xA384
0.999689296000000,0,,0x87BB
0.999709880000000,0,,0x9E8C
0.999730288000000,0,,0x8171
0.999748936000000,0,,0x8093
0.999769096000000,0,,0xD00D
0.999789968000000,0,,0x8082
0.999810176000000,0,,0x8084
0.999830120000000,0,,0x810C
0.999849760000000,0,,0x80F4
0.999870224000000,0,,0xA281
0.999890120000000,0,,0x86DA
0.999910072000000,0,,0x9DAF
0.999930120000000,0,,0x817D
0.999950816000000,0,,0x8092
0.999970472000000,0,,0xD00D
0.999990320000000,0,,0x807E
1.000009528000000,0,,0x8085
1.000028488000000,0,,0x810B
1.000049408000000,0,,0x80F5
1.000070080000000,0,,0xA2DC
1.000088120000000,0,,0x86C8
1.000107216000000,0,,0x9E01
1.000127480000000,0,,0x817E
1.000146152000000,0,,0x8094
1.000169024000000,0,,0xD00D
1.000188352000000,0,,0x807A
1.000207264000000,0,,0x8086
1.000227248000000,0,,0x810B
1.000246424000000,0,,0x80F6
1.000267296000000,0,,0xA369
1.000286984000000,0,,0x86E0
1.000306952000000,0,,0x9D6B
1.000326352000000,0,,0x8179
1.000347552000000,0,,0x8093
1.000369648000000,0,,0xD00D
1.000388560000000,0,,0x807C
1.000409112000000,0,,0x8089
1.000429552000000,0,,0x810C
1.000449840000000,0,,0x80F6
1.000470648000000,0,,0xA3B1
1.000491928000000,0,,0x8718
1.000514528000000,0,,0x9D9E
1.000537608000000,0,,0x8179
1.000560200000000,0,,0x8093
1.000581648000000,0,,0xD00D
1.000602840000000,0,,0x807C
1.000624400000000,0,,0x8088
1.000645512000000,0,,0x810A
1.000666360000000,0,,0x80F5
1.000691240000000,0,,0xA2AB
1.000718984000000,0,,0x870C
1.000744992000000,0,,0x9DDD
1.000774112000000,0,,0x817B
1.000796752000000,0,,0x8096
1.000819288000000,0,,0xD00D
1.000839040000000,0,,0x807B
1.000858696000000,0,,0x8084
1.000879768000000,0,,0x810B
1.000898600000000,0,,0x80F5
1.000917536000000,0,,0xA27E
1.000936688000000,0,,0x8721
1.000956984000000,0,,0x9DFC
1.000976744000000,0,,0x817B
1.000996720000000,0,,0x8096
1.001016808000000,0,,0xD00D
1.001036096000000,0,,0x8078
1.001053152000000,0,,0x8083
1.001071488000000,0,,0x810B
1.001094944000000,0,,0x80F5
1.001114024000000,0,,0xA258
1.001133464000000,0,,0x8705
1.001155504000000,0,,0x9DF6
1.001177696000000,0,,0x817C
1.001200256000000,0,,0x809D
1.001228472000000,0,,0xD00C
1.001258536000000,0,,0x8064
1.001292352000000,0,,0x808B
1.001325960000000,0,,0x8116
1.001356928000000,0,,0x80F3
1.001387648000000,0,,0xA2F4
1.001422280000000,0,,0x86F2
1.001452952000000,0,,0x9D9A
1.001483984000000,0,,0x8172
1.001513920000000,0,,0x808D
1.001547520000000,0,,0xD03B
1.001580152000000,0,,0x8074
1.001612640000000,0,,0x808B
1.001644264000000,0,,0x8115
1.001676832000000,0,,0x80F0
1.001712304000000,0,,0xA3F5
1.001748880000000,0,,0x86F8
1.001780416000000,0,,0x9DF4
1.001815064000000,0,,0x8154
1.001849064000000,0,,0x800D
1.001885232000000,0,,0xD00D
1.001908496000000,0,,0x807D
1.001930456000000,0,,0x8084
1.001951408000000,0,,0x810A
1.001972120000000,0,,0x80F6
1.001992440000000,0,,0xA3AC
1.002013136000000,0,,0x86E5
1.002039592000000,0,,0x9E25
1.002061880000000,0,,0x8175
1.002082392000000,0,,0x8094
1.002103216000000,0,,0xD00D
1.002125072000000,0,,0x8080
1.002145056000000,0,,0x8082
1.002163928000000,0,,0x8109
1.002184216000000,0,,0x80F5
1.002204264000000,0,,0xA3A7
1.002225360000000,0,,0x869B
1.002247008000000,0,,0x9D3C
1.002269536000000,0,,0x8095
1.002318096000000,0,,0x800D
1.002368720000000,0,,0xD080
1.002418528000000,0,,0x8088
1.002473112000000,0,,0x810B
1.002506432000000,0,,0x810B
1.002528112000000,0,,0x80F4
1.002554920000000,0,,0xA3B4
1.002578952000000,0,,0x86E4
1.002599520000000,0,,0x9C3B
1.002620272000000,0,,0x8171
1.002639488000000,0,,0x8093
1.002664928000000,0,,0xD00F
1.002686736000000,0,,0x807B
1.002709120000000,0,,0x808C
1.002728976000000,0,,0x810D
1.002751280000000,0,,0x80F4
1.002771768000000,0,,0xA33A
1.002791600000000,0,,0x8872
1.002810792000000,0,,0x9D4D
1.002831320000000,0,,0x8175
1.002851784000000,0,,0x8093
1.002872464000000,0,,0xD00D
1.002891440000000,0,,0x8079
1.002914600000000,0,,0x8084
1.002934800000000,0,,0x810C
1.002953528000000,0,,0x80F5
1.002975384000000,0,,0xA23E
1.002995736000000,0,,0x87DE
1.003015200000000,0,,0x9F3E
1.003034672000000,0,,0x8178
1.003052672000000,0,,0x8093
1.003071488000000,0,,0xD00D
1.003090600000000,0,,0x8079
1.003109328000000,0,,0x8085
1.003127904000000,0,,0x810C
1.003146016000000,0,,0x80F5
1.003166848000000,0,,0xA2C2
1.003185472000000,0,,0x87CB
1.003205856000000,0,,0x9E53
1.003223696000000,0,,0x8176
1.003242536000000,0,,0x8091
1.003261904000000,0,,0xD00D
1.003280336000000,0,,0x807A
1.003297768000000,0,,0x8086
1.003314552000000,0,,0x810C
1.003331456000000,0,,0x80F5
1.003348976000000,0,,0xA371
1.003367152000000,0,,0x8762
1.003384120000000,0,,0x9D58
1.003401040000000,0,,0x8177
1.003418336000000,0,,0x8090
1.003437056000000,0,,0xD00D
1.003455248000000,0,,0x8079
1.003472520000000,0,,0x8089
1.003489520000000,0,,0x810D
1.003506992000000,0,,0x80F5
1.003525800000000,0,,0xA386
1.003543016000000,0,,0x8704
1.003560496000000,0,,0x9EE3
1.003577824000000,0,,0x8173
1.003595064000000,0,,0x808C
1.003614320000000,0,,0xD00D
1.003631032000000,0,,0x807A
1.003647792000000,0,,0x808A
1.003665032000000,0,,0x810D
1.003682512000000,0,,0x80F4
1.003699584000000,0,,0xA1FB
1.003716432000000,0,,0x86EA
1.003733136000000,0,,0x9FA4
1.003750016000000,0,,0x8171
1.003767200000000,0,,0x808B
1.003785696000000,0,,0xD00D
1.003802760000000,0,,0x807C
1.003821728000000,0,,0x8088
1.003842656000000,0,,0x810D
1.003864416000000,0,,0x80F6
1.003884408000000,0,,0xA1D7
1.003904744000000,0,,0x86FB
1.003926272000000,0,,0x9E1A
1.003948488000000,0,,0x816E
1.003971144000000,0,,0x808D
1.003998864000000,0,,0xD00D
1.004018152000000,0,,0x807C
1.004042904000000,0,,0x808D
1.004074304000000,0,,0x8137
1.004102712000000,0,,0x80FB
1.004134736000000,0,,0xA2FB
1.004155640000000,0,,0x86DC
1.004183928000000,0,,0x9DB2
1.004212928000000,0,,0x816F
1.004244728000000,0,,0x808D
1.004274416000000,0,,0xD00E
1.004299624000000,0,,0x8079
1.004324872000000,0,,0x8089
1.004345200000000,0,,0x810E
1.004369184000000,0,,0x80F8
1.004392600000000,0,,0xA3E9
1.004413512000000,0,,0x86F1
1.004433440000000,0,,0x9DF2
1.004452872000000,0,,0x817A
1.004471992000000,0,,0x8091
1.004493224000000,0,,0xD00D
1.004510880000000,0,,0x8079
1.004530968000000,0,,0x8089
1.004549784000000,0,,0x810F
1.004570264000000,0,,0x80F8
1.004590040000000,0,,0xA3E7
1.004609928000000,0,,0x87D4
1.004628488000000,0,,0x9D81
1.004647224000000,0,,0x8179
1.004665144000000,0,,0x8092
1.004684176000000,0,,0xD00D
1.004702616000000,0,,0x807C
1.004722096000000,0,,0x8089
1.004741432000000,0,,0x810D
1.004761312000000,0,,0x80F7
1.004779872000000,0,,0xA3B8
1.004796760000000,0,,0x88DE
1.004813608000000,0,,0x9D50
1.004830480000000,0,,0x8177
1.004847488000000,0,,0x8092
1.004865488000000,0,,0xD00D
1.004882352000000,0,,0x807C
1.004899296000000,0,,0x8085
1.004916760000000,0,,0x8107
1.004933984000000,0,,0x80F4
1.004950952000000,0,,0xA384
1.004967952000000,0,,0x87BB
1.004984888000000,0,,0x9E8C
1.005002536000000,0,,0x8171
1.005019440000000,0,,0x8093
1.005037800000000,0,,0xD00D
1.005054920000000,0,,0x8082
1.005072264000000,0,,0x8086
1.005089464000000,0,,0x8108
1.005106576000000,0,,0x80F5
1.005123488000000,0,,0xA398
1.005140712000000,0,,0x870B
1.005157936000000,0,,0x9F09
1.005174704000000,0,,0x8172
1.005191768000000,0,,0x8091
1.005209904000000,0,,0xD00D
1.005227792000000,0,,0x807C
1.005244720000000,0,,0x8088
1.005263176000000,0,,0x810A
1.005280840000000,0,,0x80F5
1.005298408000000,0,,0xA39E
1.005316280000000,0,,0x86E3
1.005333184000000,0,,0x9DFB
1.005350152000000,0,,0x8174
1.005367184000000,0,,0x8090
1.005385960000000,0,,0xD00D
1.005403464000000,0,,0x807C
1.005420328000000,0,,0x8087
1.005437440000000,0,,0x810B
1.005454696000000,0,,0x80F4
1.005471656000000,0,,0xA2E1
1.005488472000000,0,,0x86D8
1.005505472000000,0,,0x9CD8
1.005522320000000,0,,0x816D
1.005539656000000,0,,0x808E
1.005557688000000,0,,0xD00D
1.005574856000000,0,,0x8079
1.005592344000000,0,,0x8085
1.005609592000000,0,,0x810A
1.005626752000000,0,,0x80F4
1.005644096000000,0,,0xA326
1.005661096000000,0,,0x86DC
1.005678496000000,0,,0x9D5D
1.005695416000000,0,,0x8172
1.005712584000000,0,,0x8090
1.005730840000000,0,,0xD00D
1.005747856000000,0,,0x8079
1.005765320000000,0,,0x8085
1.005782184000000,0,,0x810A
1.005799368000000,0,,0x80F4
1.005816408000000,0,,0xA38B
1.005833856000000,0,,0x86D3
1.005851328000000,0,,0x9DD0
1.005868192000000,0,,0x8179
1.005884960000000,0,,0x8090
1.005904184000000,0,,0xD00D
1.005920896000000,0,,0x8075
1.005938248000000,0,,0x8084
1.005955160000000,0,,0x8109
1.005972216000000,0,,0x80F4
1.005989280000000,0,,0xA3A5
1.006006672000000,0,,0x871D
1.006023744000000,0,,0x9E0B
1.006040928000000,0,,0x817B
1.006057824000000,0,,0x808F
1.006076176000000,0,,0xD00D
1.006093576000000,0,,0x8076
1.006110600000000,0,,0x8083
1.006127472000000,0,,0x8109
1.006144896000000,0,,0x80F5
1.006162448000000,0,,0xA3A5
1.006179280000000,0,,0x8772
1.006196096000000,0,,0x9E2A
1.006213208000000,0,,0x817C
1.006230208000000,0,,0x808E
1.006248816000000,0,,0xD00D
1.006265648000000,0,,0x8076
1.006283136000000,0,,0x8083
1.006301712000000,0,,0x8109
1.006319128000000,0,,0x80F5
1.006335872000000,0,,0xA3FB
1.006352720000000,0,,0x8723
1.006369920000000,0,,0x9DF8
1.006386688000000,0,,0x817C
1.006404304000000,0,,0x808E
1.006422432000000,0,,0xD00D
1.006439232000000,0,,0x8079
1.006456552000000,0,,0x8086
1.006473640000000,0,,0x810A
1.006490760000000,0,,0x80F5
1.006507944000000,0,,0xA4A5
1.006524680000000,0,,0x86F1
1.006542216000000,0,,0x9D28
1.006565192000000,0,,0x8178
1.006583704000000,0,,0x808F
1.006601984000000,0,,0xD00D
1.006619184000000,0,,0x807A
1.006636120000000,0,,0x8085
1.006653256000000,0,,0x810A
1.006671016000000,0,,0x80F6
1.006687992000000,0,,0xA329
1.006704760000000,0,,0x86C3
1.006721872000000,0,,0x9D78
1.006739376000000,0,,0x8178
1.006756432000000,0,,0x8097
1.006774680000000,0,,0xD00D
1.006791600000000,0,,0x807A
1.006808576000000,0,,0x8084
1.006826032000000,0,,0x810B
1.006842784000000,0,,0x80F6
1.006859584000000,0,,0xA340
1.006876880000000,0,,0x86B5
1.006894008000000,0,,0x9E0D
1.006911896000000,0,,0x817B
1.006928816000000,0,,0x809A
1.006946912000000,0,,0xD00D
1.006964128000000,0,,0x8079
1.006981368000000,0,,0x8085
1.006998744000000,0,,0x810B
1.007015776000000,0,,0x80F7
1.007033240000000,0,,0xA36A
1.007050472000000,0,,0x86CC
1.007067776000000,0,,0x9EFD
1.007084720000000,0,,0x817C
1.007101648000000,0,,0x8098
1.007119648000000,0,,0xD00D
1.007136392000000,0,,0x807C
1.007153112000000,0,,0x8086
1.007186888000000,0,,0x80F5
1.007243160000000,0,,0x807B
1.007292048000000,0,,0xA297
1.007346712000000,0,,0x8648
1.007386592000000,0,,0x9E48
1.007403848000000,0,,0x817A
1.007420880000000,0,,0x809E
1.007439280000000,0,,0xD00D
1.007456400000000,0,,0x807C
1.007473208000000,0,,0x8086
1.007489840000000,0,,0x810B
1.007506768000000,0,,0x80F7
1.007523616000000,0,,0xA3FD
1.007541048000000,0,,0x86AC
1.007558264000000,0,,0x9D87
1.007575192000000,0,,0x8179
1.007592144000000,0,,0x8098
1.007610472000000,0,,0xD00D
1.007627512000000,0,,0x807C
1.007644312000000,0,,0x8087
1.007661352000000,0,,0x810C
1.007678528000000,0,,0x80F7
1.007695216000000,0,,0xA328
1.007712088000000,0,,0x86CC
1.007729112000000,0,,0x9CCC
1.007746016000000,0,,0x8174
1.007763376000000,0,,0x8091
1.007781488000000,0,,0xD00D
1.007798504000000,0,,0x807C
1.007815680000000,0,,0x8086
1.007833056000000,0,,0x810D
1.007850336000000,0,,0x80F8
1.007866992000000,0,,0xA250
1.007883800000000,0,,0x86D5
1.007901176000000,0,,0x9CEE
1.007918632000000,0,,0x8177
1.007935440000000,0,,0x8095
1.007953792000000,0,,0xD00D
1.007971144000000,0,,0x807B
1.007988536000000,0,,0x8087
1.008005920000000,0,,0x810D
1.008022968000000,0,,0x80F6
1.008039952000000,0,,0xA272
1.008057304000000,0,,0x86D9
1.008075416000000,0,,0x9D97
1.008092592000000,0,,0x817E
1.008109560000000,0,,0x8098
1.008128312000000,0,,0xD00D
1.008146176000000,0,,0x807A
1.008163040000000,0,,0x8085
1.008180016000000,0,,0x810B
1.008197120000000,0,,0x80F6
1.008214048000000,0,,0xA33A
1.008231976000000,0,,0x86DA
1.008248864000000,0,,0x9E08
1.008265592000000,0,,0x817C
1.008282496000000,0,,0x8093
1.008300488000000,0,,0xD00D
1.008318456000000,0,,0x807A
1.008335528000000,0,,0x8084
1.008354552000000,0,,0x810B
1.008374392000000,0,,0x80F7
1.008394864000000,0,,0xA2F9
1.008412584000000,0,,0x86DB
1.008430744000000,0,,0x9DF6
1.008448280000000,0,,0x8176
1.008465304000000,0,,0x8090
1.008484504000000,0,,0xD00D
1.008501320000000,0,,0x8075
1.008518288000000,0,,0x8084
1.008535024000000,0,,0x810E
1.008552880000000,0,,0x80FA
1.008570080000000,0,,0xA268
1.008586648000000,0,,0x86D9
1.008605112000000,0,,0x9DFA
1.008622712000000,0,,0x8179
1.008640224000000,0,,0x8091
1.008658136000000,0,,0xD00D
1.008675096000000,0,,0x8075
1.008692112000000,0,,0x8084
1.008709384000000,0,,0x810C
1.008726296000000,0,,0x80F7
1.008743184000000,0,,0xA279
1.008760320000000,0,,0x86D6
1.008777552000000,0,,0x9DFB
1.008794840000000,0,,0x817C
1.008811800000000,0,,0x8092
1.008830408000000,0,,0xD00D
1.008847576000000,0,,0x8077
1.008865000000000,0,,0x8086
1.008881744000000,0,,0x8107
1.008898440000000,0,,0x80F5
1.008915872000000,0,,0xA2FD
1.008932920000000,0,,0x86C4
1.008950224000000,0,,0x9DF1
1.008967040000000,0,,0x817B
1.008983976000000,0,,0x8093
1.009002200000000,0,,0xD00D
1.009019856000000,0,,0x807A
1.009036840000000,0,,0x8087
1.009053504000000,0,,0x8109
1.009070536000000,0,,0x80F5
1.009087648000000,0,,0xA488
1.009105272000000,0,,0x8760
1.009123576000000,0,,0x9CBF
1.009140560000000,0,,0x8171
1.009157560000000,0,,0x808F
1.009176272000000,0,,0xD00D
1.009192784000000,0,,0x807A
1.009209496000000,0,,0x8087
1.009226392000000,0,,0x810A
1.009244000000000,0,,0x80F5
1.009261736000000,0,,0xA43E
1.009279160000000,0,,0x885E
1.009296008000000,0,,0x9CAC
1.009312704000000,0,,0x816C
1.009329464000000,0,,0x808D
1.009347992000000,0,,0xD00D
1.009366408000000,0,,0x807A
1.009384480000000,0,,0x8084
1.009401520000000,0,,0x8109
1.009419448000000,0,,0x80F5
1.009437216000000,0,,0xA3CA
1.009454152000000,0,,0x878B
1.009471272000000,0,,0x9D1C
1.009489192000000,0,,0x816F
1.009505976000000,0,,0x8092
1.009523984000000,0,,0xD00D
1.009541312000000,0,,0x807A
1.009558688000000,0,,0x8084
1.009576072000000,0,,0x8104
1.009593320000000,0,,0x80F3
1.009610368000000,0,,0xA38A
1.009627160000000,0,,0x8718
1.009643992000000,0,,0x9D62
1.009661032000000,0,,0x816D
1.009678792000000,0,,0x8096
1.009697088000000,0,,0xD00D
1.009713816000000,0,,0x807B
1.009731000000000,0,,0x8087
1.009748560000000,0,,0x810B
1.009765912000000,0,,0x80F5
1.009782840000000,0,,0xA3EE
1.009799704000000,0,,0x8708
1.009816704000000,0,,0x9D60
1.009834056000000,0,,0x8172
1.009851184000000,0,,0x8094
1.009869400000000,0,,0xD00D
1.009886352000000,0,,0x807F
1.009904072000000,0,,0x8085
1.009921352000000,0,,0x810A
1.009938224000000,0,,0x80F4
1.009956664000000,0,,0xA326
1.009975536000000,0,,0x86DC
1.009993640000000,0,,0x9D5D
1.010010360000000,0,,0x8172
1.010027200000000,0,,0x8090
1.010045512000000,0,,0xD00D
1.010062936000000,0,,0x8079
1.010079704000000,0,,0x8085
1.010096800000000,0,,0x810A
1.010114008000000,0,,0x80F4
1.010130968000000,0,,0xA38B
1.010148304000000,0,,0x86D3
1.010165264000000,0,,0x9DD0
1.010182160000000,0,,0x8179
1.010199096000000,0,,0x8090
1.010218184000000,0,,0xD00D
1.010235968000000,0,,0x8075
1.010252832000000,0,,0x8084
1.010269648000000,0,,0x8109
1.010286880000000,0,,0x80F4
1.010304720000000,0,,0xA3A5
1.010322000000000,0,,0x871D
1.010338888000000,0,,0x9E0B
1.010355824000000,0,,0x817B
1.010373896000000,0,,0x808F
1.010392856000000,0,,0xD00D
1.010409552000000,0,,0x8076
1.010426432000000,0,,0x8083
1.010443176000000,0,,0x8109
1.010460408000000,0,,0x80F5
1.010477296000000,0,,0xA3A5
1.010494152000000,0,,0x8772
1.010511664000000,0,,0x9E2A
1.010528480000000,0,,0x817C
1.010547096000000,0,,0x808E
1.010570352000000,0,,0xD00E
1.010593088000000,0,,0x8076
1.010610704000000,0,,0x8083
1.010628416000000,0,,0x8109
1.010645792000000,0,,0x80F5
1.010662784000000,0,,0xA3FB
1.010679832000000,0,,0x8723
1.010697016000000,0,,0x9DF8
1.010714680000000,0,,0x817C
1.010731640000000,0,,0x808E
1.010749792000000,0,,0xD00D
1.010767176000000,0,,0x8079
1.010784256000000,0,,0x8086
1.010801704000000,0,,0x810A
1.010819216000000,0,,0x80F5
1.010836360000000,0,,0xA4A5
1.010853648000000,0,,0x86F1
1.010871040000000,0,,0x9D29
1.010888200000000,0,,0x8178
1.010905024000000,0,,0x808F
1.010923544000000,0,,0xD00D
1.010940568000000,0,,0x807A
1.010958296000000,0,,0x8085
1.010975224000000,0,,0x810A
1.010992264000000,0,,0x80F6
1.011009384000000,0,,0xA329
1.011026752000000,0,,0x86C3
1.011043576000000,0,,0x9D78
1.011060736000000,0,,0x8178
1.011077528000000,0,,0x8097
1.011097264000000,0,,0xD00D
1.011117216000000,0,,0x807A
1.011136400000000,0,,0x8084
1.011155728000000,0,,0x810B
1.011174704000000,0,,0x80F6
1.011193512000000,0,,0xA340
1.011212320000000,0,,0x86B5
1.011230240000000,0,,0x9E0D
1.011247456000000,0,,0x817B
1.011264880000000,0,,0x809A
1.011282920000000,0,,0xD00D
1.011300272000000,0,,0x8079
1.011317288000000,0,,0x8085
1.011335768000000,0,,0x810B
1.011353096000000,0,,0x80F7
1.011371064000000,0,,0xA36A
1.011388912000000,0,,0x86CC
1.011406480000000,0,,0x9EFD
1.011423568000000,0,,0x817C
1.011440912000000,0,,0x8098
1.011458968000000,0,,0xD00D
1.011475640000000,0,,0x8078
1.011492832000000,0,,0x8086
1.011509472000000,0,,0x8109
1.011526976000000,0,,0x80F5
1.011543832000000,0,,0xA37B
1.011560776000000,0,,0x8697
1.011577872000000,0,,0x9E48
1.011595392000000,0,,0x817A
1.011612328000000,0,,0x809E
1.011630528000000,0,,0xD00D
1.011647528000000,0,,0x807C
1.011665264000000,0,,0x8086
1.011682776000000,0,,0x810B
1.011700088000000,0,,0x80F7
1.011717128000000,0,,0xA3FD
1.011734008000000,0,,0x86AC
1.011751264000000,0,,0x9D87
1.011768776000000,0,,0x8179
1.011785600000000,0,,0x8098
1.011803936000000,0,,0xD00D
1.011821072000000,0,,0x807B
1.011838296000000,0,,0x8087
1.011855280000000,0,,0x810C
1.011872104000000,0,,0x80F7
1.011889312000000,0,,0xA328
1.011906432000000,0,,0x86CC
1.011923336000000,0,,0x9CCC
1.011940296000000,0,,0x8174
1.011957288000000,0,,0x8091
1.011975832000000,0,,0xD00D
1.011993080000000,0,,0x807B
1.012010048000000,0,,0x8086
1.012027360000000,0,,0x810D
1.012044480000000,0,,0x80F8
1.012072672000000,0,,0xA2D5
1.012127184000000,0,,0x84EE
1.012180096000000,0,,0x9D77
1.012235096000000,0,,0x8195
1.012273976000000,0,,0x8095
1.012293832000000,0,,0xD00D
1.012311128000000,0,,0x807B
1.012329576000000,0,,0x8087
1.012346480000000,0,,0x810D
