Time [s],Packet ID,MOSI,MISO
0.046411520000000,0,,0x619C
0.046471280000000,0,,0x248C
0.046531280000000,0,,0x165C
0.046591304000000,0,,0x6E36
0.046651280000000,0,,0x0000
0.046711288000000,0,,0x0000
0.046771280000000,0,,0x0000
0.046831280000000,0,,0x0000
0.046891432000000,0,,0x0001
0.046951296000000,0,,0xD00D
0.047011280000000,0,,0x619C
0.047071512000000,0,,0x29A4
0.047131280000000,0,,0x1AA0
0.047191272000000,0,,0x8A29
0.047251280000000,0,,0x000A
0.047311320000000,0,,0x0000
0.047371280000000,0,,0x0000
0.047431272000000,0,,0x0000
0.047491272000000,0,,0x0000
0.047551360000000,0,,0xD00D
0.047637528000000,0,,0x619C
0.047697296000000,0,,0x2E6A
0.047757280000000,0,,0x1EA2
0.047817296000000,0,,0xA43B
0.047877288000000,0,,0x012A
0.047937296000000,0,,0x0000
0.047997296000000,0,,0x0000
0.048057296000000,0,,0x0000
0.048117296000000,0,,0x0000
0.048177288000000,0,,0xD00D
0.048237296000000,0,,0x619A
0.048297536000000,0,,0x31F7
0.048357296000000,0,,0x21A2
0.048417288000000,0,,0xB795
0.048477296000000,0,,0x02D1
0.048537296000000,0,,0x0000
0.048597288000000,0,,0x0000
0.048657288000000,0,,0x0000
0.048717296000000,0,,0x0000
0.048777296000000,0,,0xD00D
0.048863400000000,0,,0x619A
0.048923336000000,0,,0x3462
0.048983296000000,0,,0x23AE
0.049043560000000,0,,0xC4B2
0.049103288000000,0,,0x043D
0.049163288000000,0,,0x0000
0.049223272000000,0,,0x0000
0.049283288000000,0,,0x0000
0.049343288000000,0,,0x0000
0.049403280000000,0,,0xD00D
0.049463288000000,0,,0x6199
0.049523408000000,0,,0x350A
0.049583296000000,0,,0x243C
0.049643288000000,0,,0xC813
0.049703568000000,0,,0x046D
0.049763296000000,0,,0x0000
0.049823296000000,0,,0x0000
0.049883432000000,0,,0x0000
0.049943288000000,0,,0x0000
0.050003288000000,0,,0xD00D
0.050089624000000,0,,0x619A
0.050149288000000,0,,0x3397
0.050209288000000,0,,0x2301
0.050269560000000,0,,0xBFDC
0.050329288000000,0,,0x0316
0.050389432000000,0,,0x0000
0.050449288000000,0,,0x0000
0.050509288000000,0,,0x0000
0.050569288000000,0,,0x0000
0.050629288000000,0,,0xD00D
0.050689280000000,0,,0x619B
0.050749288000000,0,,0x3072
0.050809288000000,0,,0x205B
0.050869288000000,0,,0xAE85
0.050929552000000,0,,0x0164
0.050989272000000,0,,0x0000
0.051049296000000,0,,0x0000
0.051109280000000,0,,0x0000
0.051169280000000,0,,0x0000
0.051229288000000,0,,0xD00D
0.051315304000000,0,,0x619B
0.051375352000000,0,,0x2BFB
0.051435336000000,0,,0x1C9D
0.051495680000000,0,,0x9618
0.051555544000000,0,,0x007F
0.051615328000000,0,,0x0000
0.051675352000000,0,,0x0000
0.051735304000000,0,,0x0000
0.051795312000000,0,,0x0000
0.051855584000000,0,,0xD00D
0.051915296000000,0,,0x619C
0.051975312000000,0,,0x26EE
0.052035320000000,0,,0x1864
0.052095344000000,0,,0x7A66
0.052155696000000,0,,0x0035
0.052215320000000,0,,0x0000
0.052275352000000,0,,0x0000
0.052335312000000,0,,0x0000
0.052395328000000,0,,0x0000
0.052455344000000,0,,0xD00D
0.052541264000000,0,,0x619C
0.052601264000000,0,,0x2228
0.052661288000000,0,,0x1465
0.052721672000000,0,,0x5FE8
0.052781272000000,0,,0x001D
0.052841272000000,0,,0x0000
0.052901504000000,0,,0x0000
0.052961272000000,0,,0x0000
0.053021640000000,0,,0x0000
0.053081264000000,0,,0xD00D
0.053141272000000,0,,0x619D
0.053201272000000,0,,0x1E44
0.053261264000000,0,,0x1123
0.053321528000000,0,,0x49EE
0.053381344000000,0,,0x0012
0.053441272000000,0,,0x0000
0.053501272000000,0,,0x0000
0.053561552000000,0,,0x0000
0.053621504000000,0,,0x0000
0.053681264000000,0,,0xD00D
0.053767280000000,0,,0x619C
0.053827280000000,0,,0x1BC2
0.053887608000000,0,,0x0F0A
0.053947280000000,0,,0x3BAE
0.054007280000000,0,,0x0009
0.054067280000000,0,,0x0000
0.054127512000000,0,,0x0000
0.054187592000000,0,,0x0000
0.054247280000000,0,,0x0000
0.054307280000000,0,,0xD00D
0.054367272000000,0,,0x619B
0.054427272000000,0,,0x1AF4
0.054487616000000,0,,0x0E5C
0.054547272000000,0,,0x375A
0.054607272000000,0,,0x0000
0.054667272000000,0,,0x0000
0.054727280000000,0,,0x0000
0.054787520000000,0,,0x0000
0.054847272000000,0,,0x0000
0.054907272000000,0,,0xD00D
0.054993280000000,0,,0x619C
0.055053272000000,0,,0x1BDD
0.055113280000000,0,,0x0F1E
0.055173280000000,0,,0x3D06
0.055233280000000,0,,0x0000
0.055293272000000,0,,0x0000
0.055353392000000,0,,0x0000
0.055413280000000,0,,0x0000
0.055473280000000,0,,0x0000
0.055533552000000,0,,0xD00D
0.055593272000000,0,,0x619B
0.055653608000000,0,,0x1E77
0.055713272000000,0,,0x114A
0.055773280000000,0,,0x4C3F
0.055833400000000,0,,0x0000
0.055893272000000,0,,0x0000
0.055953592000000,0,,0x0000
0.056013384000000,0,,0x0000
0.056073272000000,0,,0x0000
0.056133264000000,0,,0xD00D
0.056219744000000,0,,0x619A
0.056279272000000,0,,0x22F4
0.056339280000000,0,,0x1508
0.056399272000000,0,,0x6595
0.056459272000000,0,,0x0000
0.056519616000000,0,,0x0000
0.056579272000000,0,,0x0000
0.056639272000000,0,,0x0000
0.056699272000000,0,,0x0000
0.056759544000000,0,,0xD00D
0.056819688000000,0,,0x619A
0.056879264000000,0,,0x2826
0.056939272000000,0,,0x195F
0.056999272000000,0,,0x8221
0.057059272000000,0,,0x0000
0.057119616000000,0,,0x0000
0.057179264000000,0,,0x0000
0.057239280000000,0,,0x0000
0.057299264000000,0,,0x0000
0.057359264000000,0,,0xD00D
0.057445288000000,0,,0x619A
0.057505288000000,0,,0x2D32
0.057565288000000,0,,0x1D9B
0.057625288000000,0,,0x9DA2
0.057685648000000,0,,0x00CC
0.057745288000000,0,,0x0000
0.057805408000000,0,,0x0000
0.057865288000000,0,,0x0000
0.057925288000000,0,,0x0000
0.057986040000000,0,,0xD00D
0.058045288000000,0,,0x619A
0.058105296000000,0,,0x311D
0.058165296000000,0,,0x20EA
0.058225288000000,0,,0xB2F3
0.058285696000000,0,,0x025F
0.058345288000000,0,,0x0000
0.058405288000000,0,,0x0000
0.058465288000000,0,,0x0000
0.058525280000000,0,,0x0000
0.058585704000000,0,,0xD00D
0.058671256000000,0,,0x619B
0.058731488000000,0,,0x33C3
0.058791272000000,0,,0x2326
0.058851256000000,0,,0xC151
0.058911256000000,0,,0x03D8
0.058971256000000,0,,0x0000
0.059031248000000,0,,0x0000
0.059091248000000,0,,0x0000
0.059151272000000,0,,0x0000
0.059211288000000,0,,0xD00D
0.059271248000000,0,,0x619C
0.059331240000000,0,,0x34ED
0.059391488000000,0,,0x2421
0.059451648000000,0,,0xC784
0.059511272000000,0,,0x047B
0.059571240000000,0,,0x0000
0.059631248000000,0,,0x0000
0.059691248000000,0,,0x0000
0.059751552000000,0,,0x0000
0.059811296000000,0,,0xD00D
0.059897264000000,0,,0x619A
0.059957536000000,0,,0x345B
0.060017264000000,0,,0x23A5
0.060077264000000,0,,0xC43B
0.060137544000000,0,,0x03BA
0.060197264000000,0,,0x0000
0.060257256000000,0,,0x0000
0.060317256000000,0,,0x0000
0.060377264000000,0,,0x0000
0.060437264000000,0,,0xD00D
0.060497264000000,0,,0x6199
0.060557256000000,0,,0x319F
0.060617888000000,0,,0x2157
0.060677264000000,0,,0xB51A
0.060737264000000,0,,0x01F0
0.060797536000000,0,,0x0000
0.060857256000000,0,,0x0000
0.060917264000000,0,,0x0000
0.060977264000000,0,,0x0000
0.061037256000000,0,,0xD00D
0.061123264000000,0,,0x6199
0.061183344000000,0,,0x2DE8
0.061243256000000,0,,0x1E38
0.061303264000000,0,,0xA0BD
0.061363536000000,0,,0x00B6
0.061423264000000,0,,0x0000
0.061483264000000,0,,0x0000
0.061543256000000,0,,0x0000
0.061603256000000,0,,0x0000
0.061663256000000,0,,0xD00D
0.061723256000000,0,,0x619A
0.061783256000000,0,,0x2933
0.061843304000000,0,,0x1A47
0.061903264000000,0,,0x86ED
0.061963256000000,0,,0x0047
0.062023528000000,0,,0x0000
0.062083256000000,0,,0x0000
0.062143256000000,0,,0x0000
0.062203264000000,0,,0x0000
0.062263256000000,0,,0xD00D
0.062349264000000,0,,0x619B
0.062409264000000,0,,0x246E
0.062469256000000,0,,0x164A
0.062529256000000,0,,0x6C85
0.062589504000000,0,,0x0024
0.062649256000000,0,,0x0000
0.062709256000000,0,,0x0000
0.062769256000000,0,,0x0000
0.062829256000000,0,,0x0000
0.062889256000000,0,,0xD00D
0.062949264000000,0,,0x619A
0.063009248000000,0,,0x1FC4
0.063069256000000,0,,0x1264
0.063129256000000,0,,0x5259
0.063189256000000,0,,0x0016
0.063249488000000,0,,0x0000
0.063309248000000,0,,0x0000
0.063369256000000,0,,0x0000
0.063429264000000,0,,0x0000
0.063489256000000,0,,0xD00D
0.063575280000000,0,,0x619A
0.063635280000000,0,,0x1C72
0.063695272000000,0,,0x0F9E
0.063755272000000,0,,0x3F9B
0.063815456000000,0,,0x000D
0.063875264000000,0,,0x0000
0.063935272000000,0,,0x0000
0.063995272000000,0,,0x0000
0.064055272000000,0,,0x0000
0.064115272000000,0,,0xD00D
0.064175272000000,0,,0x619B
0.064235280000000,0,,0x1AFC
0.064295272000000,0,,0x0E65
0.064355272000000,0,,0x3791
0.064415280000000,0,,0x0001
0.064475456000000,0,,0x0000
0.064535272000000,0,,0x0000
0.064595272000000,0,,0x0000
0.064655272000000,0,,0x0000
0.064715272000000,0,,0xD00D
0.064801232000000,0,,0x619A
0.064861240000000,0,,0x1B7D
0.064921232000000,0,,0x0ECF
0.064981232000000,0,,0x3AE9
0.065041240000000,0,,0x0000
0.065101240000000,0,,0x0000
0.065161256000000,0,,0x0000
0.065221504000000,0,,0x0000
0.065281224000000,0,,0x0000
0.065341232000000,0,,0xD00D
0.065401232000000,0,,0x619A
0.065461232000000,0,,0x1D65
0.065521224000000,0,,0x1064
0.065581232000000,0,,0x4628
0.065641232000000,0,,0x0000
0.065701232000000,0,,0x0000
0.065761232000000,0,,0x0000
0.065821232000000,0,,0x0000
0.065881464000000,0,,0x0000
0.065941240000000,0,,0xD00D
0.066027248000000,0,,0x619B
0.066087248000000,0,,0x2128
0.066147248000000,0,,0x1388
0.066207240000000,0,,0x5B60
0.066267248000000,0,,0x0000
0.066327248000000,0,,0x0000
0.066387248000000,0,,0x0000
0.066447512000000,0,,0x0000
0.066507240000000,0,,0x0000
0.066567248000000,0,,0xD00D
0.066627512000000,0,,0x619C
0.066687248000000,0,,0x2633
0.066747240000000,0,,0x17BE
0.066807248000000,0,,0x775D
0.066867248000000,0,,0x0000
0.066927248000000,0,,0x0000
0.066987240000000,0,,0x0000
0.067047240000000,0,,0x0000
0.067107520000000,0,,0x0000
0.067167248000000,0,,0xD00D
0.067253240000000,0,,0x619D
0.067313248000000,0,,0x2B69
0.067373248000000,0,,0x1C1B
0.067433240000000,0,,0x93E7
0.067493240000000,0,,0x0050
0.067553240000000,0,,0x0000
0.067613248000000,0,,0x0000
0.067673264000000,0,,0x0000
0.067733248000000,0,,0x0000
0.067793240000000,0,,0xD00D
0.067853512000000,0,,0x619C
0.067913248000000,0,,0x2FFC
0.067973240000000,0,,0x1FF4
0.068033240000000,0,,0xACCF
0.068093248000000,0,,0x01E5
0.068153248000000,0,,0x0000
0.068213240000000,0,,0x0000
0.068273232000000,0,,0x0000
0.068333296000000,0,,0x0000
0.068393240000000,0,,0xD00D
0.068479240000000,0,,0x619B
0.068539232000000,0,,0x3355
0.068599240000000,0,,0x22C9
0.068659240000000,0,,0xBEE9
0.068719240000000,0,,0x03B2
0.068779240000000,0,,0x0000
0.068839240000000,0,,0x0000
0.068899312000000,0,,0x0000
0.068959240000000,0,,0x0000
0.069019240000000,0,,0xD00D
0.069079480000000,0,,0x619A
0.069139240000000,0,,0x34EE
0.069199216000000,0,,0x2424
0.069259232000000,0,,0xC780
0.069319240000000,0,,0x048C
0.069379232000000,0,,0x0000
0.069439240000000,0,,0x0000
0.069499240000000,0,,0x0000
0.069559232000000,0,,0x0000
0.069619232000000,0,,0xD00D
0.069705272000000,0,,0x6198
0.069765352000000,0,,0x34D0
0.069825256000000,0,,0x240A
0.069885256000000,0,,0xC6AF
0.069945264000000,0,,0x041B
0.070005256000000,0,,0x0000
0.070065248000000,0,,0x0000
0.070125256000000,0,,0x0000
0.070185248000000,0,,0x0000
0.070245256000000,0,,0xD00D
0.070305432000000,0,,0x6199
0.070365256000000,0,,0x32AA
0.070425264000000,0,,0x223A
0.070485256000000,0,,0xBABD
0.070545328000000,0,,0x0267
0.070605304000000,0,,0x0000
0.070665264000000,0,,0x0000
0.070725336000000,0,,0x0000
0.070785296000000,0,,0x0000
0.070845328000000,0,,0xD00D
0.070931560000000,0,,0x6199
0.070991216000000,0,,0x2EDF
0.071051488000000,0,,0x1F08
0.071111224000000,0,,0xA5E5
0.071171216000000,0,,0x00EE
0.071231432000000,0,,0x0000
0.071291232000000,0,,0x0000
0.071351224000000,0,,0x0000
0.071411216000000,0,,0x0000
0.071471216000000,0,,0xD00D
0.071531584000000,0,,0x619A
0.071591216000000,0,,0x2A17
0.071651232000000,0,,0x1B06
0.071711488000000,0,,0x8BBB
0.071771216000000,0,,0x0057
0.071831224000000,0,,0x0000
0.071891216000000,0,,0x0000
0.071951216000000,0,,0x0000
0.072011232000000,0,,0x0000
0.072071216000000,0,,0xD00D
0.072157232000000,0,,0x619A
0.072217224000000,0,,0x2504
0.072277504000000,0,,0x16C7
0.072337232000000,0,,0x6FC7
0.072397536000000,0,,0x002A
0.072457496000000,0,,0x0000
0.072517232000000,0,,0x0000
0.072577232000000,0,,0x0000
0.072637232000000,0,,0x0000
0.072697480000000,0,,0xD00D
0.072757232000000,0,,0x619A
0.072817232000000,0,,0x2077
0.072877232000000,0,,0x12F9
0.072937504000000,0,,0x565C
0.072997392000000,0,,0x0019
0.073057232000000,0,,0x0000
0.073117504000000,0,,0x0000
0.073177232000000,0,,0x0000
0.073237224000000,0,,0x0000
0.073297304000000,0,,0xD00D
0.073383224000000,0,,0x619B
0.073443224000000,0,,0x1D24
0.073503264000000,0,,0x1033
0.073563576000000,0,,0x4386
0.073623224000000,0,,0x0010
0.073683488000000,0,,0x0000
0.073743232000000,0,,0x0000
0.073803232000000,0,,0x0000
0.073863904000000,0,,0x0000
0.073923224000000,0,,0xD00D
0.073983224000000,0,,0x619A
0.074043224000000,0,,0x1B2E
0.074103224000000,0,,0x0E8E
0.074163664000000,0,,0x3877
0.074223216000000,0,,0x0004
0.074283224000000,0,,0x0000
0.074343464000000,0,,0x0000
0.074403224000000,0,,0x0000
0.074463480000000,0,,0x0000
0.074523216000000,0,,0xD00D
0.074609224000000,0,,0x619A
0.074669224000000,0,,0x1AF4
0.074729520000000,0,,0x0E5E
0.074789224000000,0,,0x37A0
0.074849224000000,0,,0x0000
0.074909456000000,0,,0x0000
0.074969224000000,0,,0x0000
0.075029600000000,0,,0x0000
0.075089224000000,0,,0x0000
0.075149224000000,0,,0xD00D
0.075209216000000,0,,0x619A
0.075269224000000,0,,0x1C61
0.075329624000000,0,,0x0F8D
0.075389224000000,0,,0x401B
0.075449216000000,0,,0x0000
0.075509224000000,0,,0x0000
0.075569464000000,0,,0x0000
0.075629736000000,0,,0x0000
0.075689216000000,0,,0x0000
0.075749216000000,0,,0xD00D
0.075835248000000,0,,0x619A
0.075895632000000,0,,0x1F99
0.075955328000000,0,,0x123C
0.076015288000000,0,,0x529D
0.076075328000000,0,,0x0000
0.076135496000000,0,,0x0000
0.076195656000000,0,,0x0000
0.076255240000000,0,,0x0000
0.076315264000000,0,,0x0000
0.076375288000000,0,,0xD00D
0.076435240000000,0,,0x619A
0.076495584000000,0,,0x23C3
0.076555256000000,0,,0x15B4
0.076615288000000,0,,0x69F6
0.076675256000000,0,,0x0000
0.076735264000000,0,,0x0000
0.076795784000000,0,,0x0000
0.076855248000000,0,,0x0000
0.076915256000000,0,,0x0000
0.076975552000000,0,,0xD00D
0.077061568000000,0,,0x619A
0.077121216000000,0,,0x295F
0.077181192000000,0,,0x1A64
0.077241200000000,0,,0x88D2
0.077301200000000,0,,0x000D
0.077361560000000,0,,0x0000
0.077421192000000,0,,0x0000
0.077481200000000,0,,0x0000
0.077541480000000,0,,0x0000
0.077601200000000,0,,0xD00D
0.077661568000000,0,,0x6199
0.077721200000000,0,,0x2E9F
0.077781200000000,0,,0x1ECE
0.077841200000000,0,,0xA576
0.077901200000000,0,,0x0160
0.077961608000000,0,,0x0000
0.078021208000000,0,,0x0000
0.078081200000000,0,,0x0000
0.078141200000000,0,,0x0000
0.078201464000000,0,,0xD00D
0.078287488000000,0,,0x619A
0.078347208000000,0,,0x3278
0.078407208000000,0,,0x220E
0.078467216000000,0,,0xBA65
0.078527208000000,0,,0x0343
0.078587216000000,0,,0x0000
0.078647216000000,0,,0x0000
0.078707208000000,0,,0x0000
0.078767472000000,0,,0x0000
0.078827568000000,0,,0xD00D
0.078887208000000,0,,0x6199
0.078947448000000,0,,0x3485
0.079007216000000,0,,0x23CC
0.079067216000000,0,,0xC579
0.079127568000000,0,,0x047D
0.079187216000000,0,,0x0000
0.079247216000000,0,,0x0000
0.079307216000000,0,,0x0000
0.079367208000000,0,,0x0000
0.079427808000000,0,,0xD00D
0.079513456000000,0,,0x6198
0.079573208000000,0,,0x34F5
0.079633208000000,0,,0x242A
0.079693208000000,0,,0xC77D
0.079753216000000,0,,0x0459
0.079813216000000,0,,0x0000
0.079873208000000,0,,0x0000
0.079933208000000,0,,0x0000
0.079993216000000,0,,0x0000
0.080053216000000,0,,0xD00D
0.080113208000000,0,,0x6198
0.080173440000000,0,,0x333A
0.080233208000000,0,,0x22B3
0.080293208000000,0,,0xBDAC
0.080353208000000,0,,0x02D9
0.080413200000000,0,,0x0000
0.080473208000000,0,,0x0000
0.080533208000000,0,,0x0000
0.080593696000000,0,,0x0001
0.080653200000000,0,,0xD00D
0.080739448000000,0,,0x6199
0.080799208000000,0,,0x301F
0.080859200000000,0,,0x2017
0.080919480000000,0,,0xAC7E
0.080979208000000,0,,0x0136
0.081039208000000,0,,0x0000
0.081099200000000,0,,0x0000
0.081159200000000,0,,0x0000
0.081219208000000,0,,0x0000
0.081279208000000,0,,0xD00D
0.081339208000000,0,,0x6199
0.081399472000000,0,,0x2C57
0.081459208000000,0,,0x1CEA
0.081519208000000,0,,0x97ED
0.081580416000000,0,,0x006D
0.081640296000000,0,,0x0000
0.081700304000000,0,,0x0000
0.081760224000000,0,,0x0000
0.081820248000000,0,,0x0000
0.081880224000000,0,,0xD00D
0.081966192000000,0,,0x6199
0.082026192000000,0,,0x27D8
0.082086176000000,0,,0x1926
0.082146280000000,0,,0x7F24
0.082206192000000,0,,0x0030
0.082266192000000,0,,0x0000
0.082326752000000,0,,0x0000
0.082386184000000,0,,0x0000
0.082446184000000,0,,0x0000
0.082506184000000,0,,0xD00D
0.082566192000000,0,,0x6199
0.082626560000000,0,,0x2267
0.082686328000000,0,,0x1499
0.082746208000000,0,,0x6102
0.082806192000000,0,,0x001C
0.082866184000000,0,,0x0000
0.082926600000000,0,,0x0000
0.082986464000000,0,,0x0000
0.083046184000000,0,,0x0000
0.083106200000000,0,,0xD00D
0.083192560000000,0,,0x6199
0.083252200000000,0,,0x1E37
0.083312200000000,0,,0x1119
0.083372192000000,0,,0x497C
0.083432208000000,0,,0x0012
0.083492544000000,0,,0x0000
0.083552432000000,0,,0x0000
0.083612200000000,0,,0x0000
0.083672200000000,0,,0x0000
0.083732440000000,0,,0xD00D
0.083792560000000,0,,0x6199
0.083852200000000,0,,0x1B99
0.083912200000000,0,,0x0EE9
0.083972200000000,0,,0x3AC2
0.084032200000000,0,,0x0009
0.084092584000000,0,,0x0000
0.084152192000000,0,,0x0000
0.084212456000000,0,,0x0000
0.084272200000000,0,,0x0000
0.084332200000000,0,,0xD00D
0.084418200000000,0,,0x6199
0.084478200000000,0,,0x1AFA
0.084538200000000,0,,0x0E63
0.084598200000000,0,,0x379A
0.084658200000000,0,,0x0000
0.084718200000000,0,,0x0000
0.084778200000000,0,,0x0000
0.084838184000000,0,,0x0000
0.084898192000000,0,,0x0000
0.084958792000000,0,,0xD00D
0.085018192000000,0,,0x6199
0.085078200000000,0,,0x1C4E
0.085138192000000,0,,0x0F7E
0.085198200000000,0,,0x3FA4
0.085258536000000,0,,0x0000
0.085318200000000,0,,0x0000
0.085378192000000,0,,0x0000
0.085438200000000,0,,0x0000
0.085498200000000,0,,0x0000
0.085558576000000,0,,0xD00D
0.085644200000000,0,,0x6199
0.085704464000000,0,,0x1EE9
0.085764192000000,0,,0x11A9
0.085824192000000,0,,0x4EA7
0.085884192000000,0,,0x0000
0.085944208000000,0,,0x0000
0.086004192000000,0,,0x0000
0.086064192000000,0,,0x0000
0.086124192000000,0,,0x0001
0.086184464000000,0,,0xD00D
0.086244200000000,0,,0x619B
0.086304192000000,0,,0x2213
0.086364184000000,0,,0x144B
0.086424192000000,0,,0x6062
0.086484192000000,0,,0x0000
0.086544192000000,0,,0x0000
0.086604184000000,0,,0x0000
0.086664192000000,0,,0x0000
0.086724640000000,0,,0x0000
0.086784200000000,0,,0xD00D
0.086870216000000,0,,0x619D
0.086930216000000,0,,0x26C1
0.086990216000000,0,,0x1834
0.087050208000000,0,,0x7A2F
0.087110216000000,0,,0x0000
0.087170216000000,0,,0x0000
0.087230216000000,0,,0x0000
0.087290208000000,0,,0x0000
0.087350216000000,0,,0x0000
0.087410320000000,0,,0xD00D
0.087470216000000,0,,0x619C
0.087530216000000,0,,0x2BDD
0.087590216000000,0,,0x1C7D
0.087650208000000,0,,0x964D
0.087710208000000,0,,0x0093
0.087770208000000,0,,0x0000
0.087830208000000,0,,0x0000
0.087890208000000,0,,0x0000
0.087950216000000,0,,0x0000
0.088010216000000,0,,0xD00D
0.088096168000000,0,,0x619B
0.088156440000000,0,,0x3057
0.088216192000000,0,,0x2041
0.088276168000000,0,,0xAEC6
0.088336168000000,0,,0x0236
0.088396176000000,0,,0x0000
0.088456176000000,0,,0x0000
0.088516400000000,0,,0x0000
0.088576168000000,0,,0x0000
0.088636176000000,0,,0xD00D
0.088696168000000,0,,0x6199
0.088756168000000,0,,0x33B1
0.088816448000000,0,,0x2317
0.088876176000000,0,,0xC0EF
0.088936240000000,0,,0x03FC
0.088996168000000,0,,0x0000
0.089056168000000,0,,0x0000
0.089116168000000,0,,0x0000
0.089176184000000,0,,0x0000
0.089236168000000,0,,0xD00D
0.089322176000000,0,,0x6199
0.089382424000000,0,,0x34E7
0.089442192000000,0,,0x241D
0.089502184000000,0,,0xC75D
0.089562424000000,0,,0x047A
0.089622184000000,0,,0x0000
0.089682184000000,0,,0x0000
0.089742184000000,0,,0x0000
0.089802184000000,0,,0x0000
0.089862184000000,0,,0xD00D
0.089922184000000,0,,0x6199
0.089982192000000,0,,0x33EA
0.090042424000000,0,,0x2346
