Time [s],Packet ID,MOSI,MISO
0.099740936000000,0,,0xFA1F
0.099800688000000,0,,0xFD4D
0.099860696000000,0,,0xE98D
0.099920688000000,0,,0xFDFE
0.099980696000000,0,,0xFC52
0.100040696000000,0,,0x005B
0.100100696000000,0,,0xFDF1
0.100160688000000,0,,0xFC1C
0.100220696000000,0,,0xFE45
0.100280936000000,0,,0xD00D
0.100340712000000,0,,0xFA28
0.100400688000000,0,,0xFD41
0.100460704000000,0,,0xEE66
0.100520704000000,0,,0xFDFA
0.100580712000000,0,,0xFC52
0.100640704000000,0,,0x005C
0.100700704000000,0,,0xFDF4
0.100760696000000,0,,0xFC1A
0.100820704000000,0,,0x0044
0.100880696000000,0,,0xD00D
0.100966736000000,0,,0xFA2A
0.101027000000000,0,,0xFD4C
0.101086744000000,0,,0xF799
0.101146696000000,0,,0xFDF4
0.101206760000000,0,,0xFC5C
0.101266744000000,0,,0xFF1C
0.101326712000000,0,,0xFDEF
0.101386728000000,0,,0xFC29
0.101446720000000,0,,0xFE47
0.101506952000000,0,,0xD00D
0.101566680000000,0,,0xFA25
0.101626736000000,0,,0xFD4A
0.101686984000000,0,,0xF9FF
0.101746680000000,0,,0xFDFD
0.101806736000000,0,,0xFC51
0.101866728000000,0,,0xE9AF
0.101926680000000,0,,0xFDF0
0.101986720000000,0,,0xFC1A
0.102046728000000,0,,0xFE45
0.102106688000000,0,,0xD00D
0.102192688000000,0,,0xFA29
0.102252952000000,0,,0xFD3F
0.102312688000000,0,,0xFBF3
0.102372688000000,0,,0xFDF9
0.102432680000000,0,,0xFC52
0.102492680000000,0,,0xED62
0.102552688000000,0,,0xFDF2
0.102612688000000,0,,0xFC1A
0.102672680000000,0,,0x003E
0.102732800000000,0,,0xD00D
0.102792688000000,0,,0xFA28
0.102852688000000,0,,0xFD4D
0.102912960000000,0,,0xFD6C
0.102972680000000,0,,0xFDF3
0.103032680000000,0,,0xFC5B
0.103092688000000,0,,0xF67F
0.103152688000000,0,,0xFDEE
0.103212680000000,0,,0xFC29
0.103272680000000,0,,0xFF01
0.103332688000000,0,,0xD00D
0.103418672000000,0,,0xFA22
0.103478952000000,0,,0xFD4B
0.103538688000000,0,,0xFDA7
0.103598688000000,0,,0xFDFC
0.103658680000000,0,,0xFC50
0.103718680000000,0,,0xF99B
0.103778680000000,0,,0xFDF1
0.103838680000000,0,,0xFC1B
0.103898680000000,0,,0xE980
0.103958680000000,0,,0xD00D
0.104018680000000,0,,0xFA27
0.104078680000000,0,,0xFD40
0.104138960000000,0,,0xFDBD
0.104198672000000,0,,0xFDF9
0.104258680000000,0,,0xFC4B
0.104318680000000,0,,0xFBE3
0.104378688000000,0,,0xFDF2
0.104438680000000,0,,0xFC1A
0.104498672000000,0,,0xEE44
0.104558688000000,0,,0xD00D
0.104644680000000,0,,0xFA2C
0.104704928000000,0,,0xFD4D
0.104764680000000,0,,0xFDF8
0.104824680000000,0,,0xFDF2
0.104884920000000,0,,0xFC56
0.104944680000000,0,,0xFD6A
0.105004680000000,0,,0xFDEE
0.105064680000000,0,,0xFC29
0.105124680000000,0,,0xF8A0
0.105184672000000,0,,0xD00D
0.105244680000000,0,,0xFA28
0.105304688000000,0,,0xFD4A
0.105364920000000,0,,0xFE1D
0.105424680000000,0,,0xFDFC
0.105484680000000,0,,0xFC61
0.105544928000000,0,,0xFDAD
0.105604680000000,0,,0xFDF0
0.105664680000000,0,,0xFC1C
0.105724672000000,0,,0xFB17
0.105784672000000,0,,0xD00D
0.105870680000000,0,,0xFA2A
0.105930688000000,0,,0xFD40
0.105990688000000,0,,0xFE35
0.106050688000000,0,,0xFDF9
0.106110936000000,0,,0xFC4D
0.106170680000000,0,,0xFDC9
0.106230680000000,0,,0xFDF3
0.106290680000000,0,,0xFC1A
0.106350688000000,0,,0xFC56
0.106410680000000,0,,0xD00D
0.106470680000000,0,,0xFA34
0.106530680000000,0,,0xFD4E
0.106590704000000,0,,0xFE45
0.106650704000000,0,,0xFDF3
0.106710696000000,0,,0xFC56
0.106771000000000,0,,0xFDFE
0.106830680000000,0,,0xFDEF
0.106890696000000,0,,0xFC29
0.106950696000000,0,,0xFD7E
0.107010696000000,0,,0xD00D
0.107096720000000,0,,0xFA25
0.107156912000000,0,,0xFD4F
0.107216704000000,0,,0xFE4D
0.107276696000000,0,,0xFDFF
0.107336968000000,0,,0xFC64
0.107396704000000,0,,0xFE1F
0.107456688000000,0,,0xFDEB
0.107516992000000,0,,0xFC26
0.107576704000000,0,,0xFDA6
0.107636688000000,0,,0xD00D
0.107696672000000,0,,0xFA1C
0.107756704000000,0,,0xFD49
0.107816680000000,0,,0xFE4D
0.107876672000000,0,,0xFE05
0.107936712000000,0,,0xFC5B
0.107996912000000,0,,0xFE3A
0.108056672000000,0,,0xFDF0
0.108116680000000,0,,0xFC16
0.108176952000000,0,,0xFDB4
0.108236672000000,0,,0xD00D
0.108322680000000,0,,0xFA25
0.108382672000000,0,,0xFD40
0.108442680000000,0,,0xFE50
0.108502688000000,0,,0xFDFC
0.108562760000000,0,,0xFC52
0.108622680000000,0,,0xFE53
0.108682672000000,0,,0xFDF3
0.108742952000000,0,,0xFC14
0.108802680000000,0,,0xFDF0
0.108862680000000,0,,0xD00D
0.108922672000000,0,,0xFA29
0.108982672000000,0,,0xFD4D
0.109042720000000,0,,0xFE55
0.109102680000000,0,,0xFDF4
0.109162672000000,0,,0xFC5C
0.109222712000000,0,,0xFE58
0.109282664000000,0,,0xFDEE
0.109342688000000,0,,0xFC23
0.109402944000000,0,,0xFE19
0.109462672000000,0,,0xD00D
0.109548672000000,0,,0xFA25
0.109608704000000,0,,0xFD4B
0.109668672000000,0,,0xFE53
0.109728680000000,0,,0xFDFD
0.109788680000000,0,,0xFC51
0.109848680000000,0,,0xFE59
0.109908648000000,0,,0xFDF2
0.109968912000000,0,,0xFC18
0.110028680000000,0,,0xFE2D
0.110088680000000,0,,0xD00D
0.110148672000000,0,,0xFA20
0.110208672000000,0,,0xFD41
0.110268680000000,0,,0xFE54
0.110328672000000,0,,0xFDFA
0.110388672000000,0,,0xFC53
0.110448664000000,0,,0xFE62
0.110508680000000,0,,0xFDF1
0.110568672000000,0,,0xFC1A
0.110628920000000,0,,0xFE3B
0.110688664000000,0,,0xD00D
0.110774896000000,0,,0xFA26
0.110834680000000,0,,0xFD4B
0.110894672000000,0,,0xFE56
0.110954672000000,0,,0xFDF3
0.111014672000000,0,,0xFC5A
0.111074816000000,0,,0xFE65
0.111134672000000,0,,0xFDF2
0.111194848000000,0,,0xFC20
0.111254672000000,0,,0xFE3D
0.111314672000000,0,,0xD00D
0.111374984000000,0,,0xFA2B
0.111434672000000,0,,0xFD40
0.111494672000000,0,,0x004E
0.111554672000000,0,,0xFDF6
0.111614672000000,0,,0xFC4F
0.111674656000000,0,,0xFE6A
0.111734672000000,0,,0xFDF4
0.111794672000000,0,,0xFC0C
0.111854856000000,0,,0xFE3E
0.111914672000000,0,,0xD00D
0.112000672000000,0,,0xFA37
0.112060680000000,0,,0xFD39
0.112120680000000,0,,0xFE53
0.112180672000000,0,,0xFDF6
0.112240960000000,0,,0xFC51
0.112300672000000,0,,0xFE6C
0.112360672000000,0,,0xFDF4
0.112420672000000,0,,0xFC14
0.112480680000000,0,,0xFE44
0.112540920000000,0,,0xD00D
0.112600808000000,0,,0xFA30
0.112660672000000,0,,0xFD4B
0.112720672000000,0,,0x0052
0.112780672000000,0,,0xFDF2
0.112840816000000,0,,0xFC5B
0.112900672000000,0,,0xFE64
0.112960672000000,0,,0xFDEE
0.113020680000000,0,,0xFC28
0.113080672000000,0,,0xFE45
0.113140672000000,0,,0xD00D
0.113226672000000,0,,0xFA26
0.113286672000000,0,,0xFD4B
0.113346968000000,0,,0x0049
0.113407008000000,0,,0xFDFC
0.113466672000000,0,,0xFC51
0.113526672000000,0,,0x005C
0.113586672000000,0,,0xFDF1
0.113646664000000,0,,0xFC1A
0.113707048000000,0,,0xFE44
0.113766712000000,0,,0xD00D
0.113826904000000,0,,0xFA2A
0.113886664000000,0,,0xFD3F
0.113946712000000,0,,0xFF0D
0.114007184000000,0,,0xFDF9
0.114066664000000,0,,0xFC52
0.114126664000000,0,,0x0063
0.114186672000000,0,,0xFDF3
0.114246672000000,0,,0xFC1A
0.114306928000000,0,,0xFE47
0.114366712000000,0,,0xD00D
0.114452672000000,0,,0xFA2A
0.114512680000000,0,,0xFD4D
0.114573264000000,0,,0xE98F
0.114632664000000,0,,0xFDF3
0.114692672000000,0,,0xFC5B
0.114752672000000,0,,0x005F
0.114812672000000,0,,0xFDEF
0.114873024000000,0,,0xFC29
0.114932664000000,0,,0xFE46
0.114992672000000,0,,0xD00D
0.115052696000000,0,,0xFA24
0.115112664000000,0,,0xFD4B
0.115172992000000,0,,0xEE64
0.115232944000000,0,,0xFDFC
0.115292672000000,0,,0xFC50
0.115352672000000,0,,0x0057
0.115412672000000,0,,0xFDF1
0.115473032000000,0,,0xFC1B
0.115532664000000,0,,0x0041
0.115592672000000,0,,0xD00D
0.115678672000000,0,,0xFA28
0.115738984000000,0,,0xFD3F
0.115798912000000,0,,0xF796
0.115858664000000,0,,0xFDF9
0.115918672000000,0,,0xFC52
0.115978664000000,0,,0xFF21
0.116038976000000,0,,0xFDF2
0.116098664000000,0,,0xFC19
0.116158672000000,0,,0xFE49
0.116218664000000,0,,0xD00D
0.116278672000000,0,,0xFA2A
0.116338984000000,0,,0xFD4D
0.116398656000000,0,,0xFA01
0.116458904000000,0,,0xFDF4
0.116518672000000,0,,0xFC5D
0.116578656000000,0,,0xE9B3
0.116639216000000,0,,0xFDED
0.116698664000000,0,,0xFC28
0.116758672000000,0,,0xFE49
0.116818664000000,0,,0xD00D
0.116905064000000,0,,0xFA25
0.116964672000000,0,,0xFD4B
0.117024816000000,0,,0xFBF2
0.117084664000000,0,,0xFDFE
0.117144664000000,0,,0xFC53
0.117205320000000,0,,0xED5B
0.117264664000000,0,,0xFDEF
0.117324664000000,0,,0xFC1A
0.117384664000000,0,,0x003D
0.117444664000000,0,,0xD00D
0.117504992000000,0,,0xFA2A
0.117564680000000,0,,0xFD40
0.117624656000000,0,,0xFD68
0.117684856000000,0,,0xFDFA
0.117744664000000,0,,0xFC53
0.117804664000000,0,,0xF682
0.117864904000000,0,,0xFDF2
0.117924672000000,0,,0xFC1A
0.117984672000000,0,,0xFF03
0.118044664000000,0,,0xD00D
0.118130672000000,0,,0xFA2B
0.118190672000000,0,,0xFD4E
0.118250672000000,0,,0xFDA8
0.118310664000000,0,,0xFDF3
0.118370664000000,0,,0xFC5D
0.118430944000000,0,,0xF99F
0.118490672000000,0,,0xFDED
0.118550664000000,0,,0xFC2A
0.118610664000000,0,,0xE982
0.118671080000000,0,,0xD00D
0.118730672000000,0,,0xFA25
0.118790672000000,0,,0xFD4C
0.118850664000000,0,,0xFDBD
0.118910664000000,0,,0xFDFC
0.118970984000000,0,,0xFC51
0.119030672000000,0,,0xFBDD
0.119090952000000,0,,0xFDF1
0.119150664000000,0,,0xFC1B
0.119210664000000,0,,0xEE40
0.119271464000000,0,,0xD00D
0.119356664000000,0,,0xFA29
0.119416664000000,0,,0xFD41
0.119476704000000,0,,0xFDF5
0.119536656000000,0,,0xFDFA
0.119596664000000,0,,0xFC51
0.119656944000000,0,,0xFD6F
0.119716664000000,0,,0xFDF3
0.119776656000000,0,,0xFC1A
0.119836928000000,0,,0xF8A0
0.119896664000000,0,,0xD00D
0.119956664000000,0,,0xFA2A
0.120016664000000,0,,0xFD4D
0.120076696000000,0,,0xFE1E
0.120137032000000,0,,0xFDF3
0.120196656000000,0,,0xFC4D
0.120256664000000,0,,0xFDAF
0.120316904000000,0,,0xFDEE
0.120376664000000,0,,0xFC2A
0.120437064000000,0,,0xFB19
0.120496936000000,0,,0xD00D
0.120582664000000,0,,0xFA24
0.120642664000000,0,,0xFD4B
0.120702664000000,0,,0xFE34
0.120762664000000,0,,0xFDFC
0.120822656000000,0,,0xFC52
0.120882680000000,0,,0xFDC2
0.120942664000000,0,,0xFDF1
0.121002664000000,0,,0xFC1C
0.121062912000000,0,,0xFC52
0.121122656000000,0,,0xD00D
0.121182672000000,0,,0xFA28
0.121242664000000,0,,0xFD3F
0.121302664000000,0,,0xFE43
0.121362664000000,0,,0xFDFA
0.121422664000000,0,,0xFC5A
0.121482664000000,0,,0xFDFF
0.121542720000000,0,,0xFDF2
0.121602664000000,0,,0xFC1A
0.121662664000000,0,,0xFD80
0.121722912000000,0,,0xD00D
0.121808656000000,0,,0xFA2B
0.121868664000000,0,,0xFD4D
0.121928664000000,0,,0xFE4C
0.121988664000000,0,,0xFDF4
0.122048656000000,0,,0xFC4E
0.122108664000000,0,,0xFE25
0.122168664000000,0,,0xFDEE
0.122228656000000,0,,0xFC29
0.122288896000000,0,,0xFDAA
0.122348656000000,0,,0xD00D
0.122408664000000,0,,0xFA29
0.122468664000000,0,,0xFD4B
0.122528664000000,0,,0xFE4E
0.122588664000000,0,,0xFDFC
0.122648656000000,0,,0xFC58
0.122708664000000,0,,0xFE3C
0.122768664000000,0,,0xFDF2
0.122828656000000,0,,0xFC1D
0.122888656000000,0,,0xFDB6
0.122948904000000,0,,0xD00D
0.123034896000000,0,,0xFA2A
0.123094664000000,0,,0xFD3E
0.123154672000000,0,,0xFE4F
0.123214664000000,0,,0xFDFE
0.123274664000000,0,,0xFC62
0.123334656000000,0,,0xFE52
0.123394664000000,0,,0xFDF0
0.123454664000000,0,,0xFC12
0.123514816000000,0,,0xFDEE
0.123574648000000,0,,0xD00D
0.123634664000000,0,,0xFA2B
0.123694936000000,0,,0xFD41
0.123754664000000,0,,0xFE51
0.123814648000000,0,,0xFE04
0.123874656000000,0,,0xFC58
0.123934656000000,0,,0xFE53
0.123994656000000,0,,0xFDEC
0.124054656000000,0,,0xFC18
0.124114656000000,0,,0xFE19
0.124174776000000,0,,0xD00D
0.124260944000000,0,,0xFA23
0.124320664000000,0,,0xFD47
0.124380664000000,0,,0xFE54
0.124440672000000,0,,0xFE03
0.124500656000000,0,,0xFC58
0.124560656000000,0,,0xFE55
0.124620664000000,0,,0xFDEE
0.124680656000000,0,,0xFC25
0.124740664000000,0,,0xFE30
0.124800656000000,0,,0xD00D
0.124860664000000,0,,0xFA1B
0.124920952000000,0,,0xFD52
0.124980664000000,0,,0xFE56
0.125040664000000,0,,0xFDF7
0.125100656000000,0,,0xFC5E
0.125160664000000,0,,0xFE59
0.125220664000000,0,,0xFDEC
0.125280664000000,0,,0xFC2C
0.125340664000000,0,,0xFE3B
0.125400664000000,0,,0xD00D
0.125486896000000,0,,0xFA1E
0.125546656000000,0,,0xFD4C
0.125606656000000,0,,0xFE53
0.125666920000000,0,,0xFDFE
0.125726656000000,0,,0xFC52
0.125786656000000,0,,0xFE5B
0.125846656000000,0,,0xFDEF
0.125906664000000,0,,0xFC1A
0.125966656000000,0,,0xFE3E
0.126026656000000,0,,0xD00D
0.126086688000000,0,,0xFA26
0.126146928000000,0,,0xFD40
0.126206656000000,0,,0x0050
0.126266656000000,0,,0xFDFB
0.126326896000000,0,,0xFC52
0.126386648000000,0,,0xFE64
0.126446656000000,0,,0xFDF2
0.126506840000000,0,,0xFC19
0.126566656000000,0,,0xFE42
0.126626656000000,0,,0xD00D
0.126712656000000,0,,0xFA29
0.126772648000000,0,,0xFD4D
0.126832656000000,0,,0xFE57
0.126892904000000,0,,0xFDF5
0.126952664000000,0,,0xFC5C
0.127012656000000,0,,0xFE62
0.127072656000000,0,,0xFDEF
0.127132656000000,0,,0xFC27
0.127192664000000,0,,0xFE45
0.127252640000000,0,,0xD00D
0.127312656000000,0,,0xFA24
0.127372656000000,0,,0xFD4B
0.127432656000000,0,,0x0050
0.127492656000000,0,,0xFDFE
0.127552880000000,0,,0xFC51
0.127612656000000,0,,0xFE5F
0.127672656000000,0,,0xFDF1
0.127732656000000,0,,0xFC1A
0.127792648000000,0,,0xFE44
0.127852640000000,0,,0xD00D
0.127938656000000,0,,0xFA28
0.127998648000000,0,,0xFD40
0.128058648000000,0,,0x004A
0.128118936000000,0,,0xFDFA
0.128178656000000,0,,0xFC53
0.128238648000000,0,,0x0062
0.128298928000000,0,,0xFDF2
0.128358648000000,0,,0xFC1A
0.128418656000000,0,,0xFE47
0.128478656000000,0,,0xD00D
0.128538656000000,0,,0xFA2A
0.128598656000000,0,,0xFD4E
0.128658656000000,0,,0xFF11
0.128718656000000,0,,0xFDF4
0.128778928000000,0,,0xFC5D
0.128838648000000,0,,0x005F
0.128898656000000,0,,0xFDED
0.128958928000000,0,,0xFC29
0.129018656000000,0,,0xFE47
0.129078648000000,0,,0xD00D
0.129164648000000,0,,0xFA25
0.129224656000000,0,,0xFD4C
0.129284632000000,0,,0xE98D
0.129344744000000,0,,0xFDFE
0.129404656000000,0,,0xFC52
0.129464648000000,0,,0x005B
0.129524928000000,0,,0xFDF0
0.129584656000000,0,,0xFC1A
0.129644656000000,0,,0xFE45
0.129704648000000,0,,0xD00D
0.129764640000000,0,,0xFA29
0.129824648000000,0,,0xFD40
0.129884656000000,0,,0xEE65
0.129944648000000,0,,0xFDF9
0.130004736000000,0,,0xFC53
0.130064648000000,0,,0x005D
0.130124648000000,0,,0xFDF2
0.130184928000000,0,,0xFC19
0.130244648000000,0,,0x0044
0.130304648000000,0,,0xD00D
0.130390664000000,0,,0xFA2B
0.130450752000000,0,,0xFD4D
0.130510648000000,0,,0xF799
0.130570656000000,0,,0xFDF3
0.130630656000000,0,,0xFC5C
0.130690664000000,0,,0xFF1C
0.130750912000000,0,,0xFDED
0.130810656000000,0,,0xFC27
0.130870656000000,0,,0xFE48
0.130930656000000,0,,0xD00D
0.130990656000000,0,,0xFA25
0.131050640000000,0,,0xFD4A
0.131110672000000,0,,0xF9FF
0.131170656000000,0,,0xFDFC
0.131230664000000,0,,0xFC50
0.131290672000000,0,,0xE9AE
0.131350656000000,0,,0xFDEF
0.131410960000000,0,,0xFC1A
0.131470672000000,0,,0xFE46
0.131530664000000,0,,0xD00D
0.131616696000000,0,,0xFA28
0.131676696000000,0,,0xFD3F
0.131736648000000,0,,0xFBF2
0.131796704000000,0,,0xFDF9
0.131856696000000,0,,0xFC52
0.131916680000000,0,,0xED61
0.131976912000000,0,,0xFDF2
0.132036688000000,0,,0xFC1A
0.132096680000000,0,,0x003F
0.132157032000000,0,,0xD00D
0.132216736000000,0,,0xFA2A
0.132276672000000,0,,0xFD4D
0.132336648000000,0,,0xFD6C
0.132396688000000,0,,0xFDF3
0.132456672000000,0,,0xFC56
0.132516656000000,0,,0xF67F
0.132576688000000,0,,0xFDED
0.132636968000000,0,,0xFC28
0.132696648000000,0,,0xFF03
0.132756648000000,0,,0xD00D
0.132842648000000,0,,0xFA24
0.132902648000000,0,,0xFD4A
0.132962640000000,0,,0xFDA7
0.133022648000000,0,,0xFDFD
0.133082952000000,0,,0xFC60
0.133142648000000,0,,0xF99C
0.133202640000000,0,,0xFDF1
0.133262648000000,0,,0xFC1A
0.133322648000000,0,,0xE980
0.133383128000000,0,,0xD00D
0.133442648000000,0,,0xFA27
0.133502648000000,0,,0xFD3F
0.133562648000000,0,,0xFDBD
0.133622648000000,0,,0xFDF9
0.133682840000000,0,,0xFC4B
0.133742640000000,0,,0xFBE4
0.133802648000000,0,,0xFDF3
0.133862648000000,0,,0xFC19
0.133922656000000,0,,0xEE45
0.133982688000000,0,,0xD00D
0.134068656000000,0,,0xFA29
0.134128912000000,0,,0xFD4D
0.134188648000000,0,,0xFDF8
0.134249040000000,0,,0xFDF3
0.134308648000000,0,,0xFC55
0.134368648000000,0,,0xFD6A
0.134428640000000,0,,0xFDED
0.134488648000000,0,,0xFC29
0.134549008000000,0,,0xF8A1
0.134608920000000,0,,0xD00D
0.134668648000000,0,,0xFA1F
0.134728640000000,0,,0xFD4C
0.134788920000000,0,,0xFE1D
0.134848944000000,0,,0xFDFC
0.134908648000000,0,,0xFC50
0.134968640000000,0,,0xFDAC
0.135028648000000,0,,0xFDF0
0.135088648000000,0,,0xFC1D
0.135148888000000,0,,0xFB15
0.135208640000000,0,,0xD00D
0.135294648000000,0,,0xFA21
0.135354920000000,0,,0xFD3D
0.135414944000000,0,,0xFE31
0.135474640000000,0,,0xFDFC
0.135534640000000,0,,0xFC57
0.135594648000000,0,,0xFDCB
0.135654648000000,0,,0xFDF4
0.135715016000000,0,,0xFC09
0.135774640000000,0,,0xFC51
0.135834736000000,0,,0xD00D
0.135894648000000,0,,0xFA35
0.135954640000000,0,,0xFD38
0.136015144000000,0,,0xFE42
0.136074648000000,0,,0xFDF7
0.136134648000000,0,,0xFC51
0.136194648000000,0,,0xFE05
0.136254640000000,0,,0xFDF3
0.136315040000000,0,,0xFC13
0.136374640000000,0,,0xFD7E
0.136434640000000,0,,0xD00D
0.136520648000000,0,,0xFA2F
0.136581240000000,0,,0xFD4A
0.136640648000000,0,,0xFE4E
0.136700648000000,0,,0xFDF5
0.136760640000000,0,,0xFC54
0.136820648000000,0,,0xFE27
0.136881032000000,0,,0xFDEE
0.136940640000000,0,,0xFC27
0.137000648000000,0,,0xFDA8
0.137060648000000,0,,0xD00D
0.137120648000000,0,,0xFA2A
0.137181048000000,0,,0xFD49
0.137240912000000,0,,0xFE4E
0.137300648000000,0,,0xFDFD
0.137360664000000,0,,0xFC5E
0.137420720000000,0,,0xFE3E
0.137481040000000,0,,0xFDF2
0.137540664000000,0,,0xFC1B
0.137600648000000,0,,0xFDB5
0.137660664000000,0,,0xD00D
0.137746984000000,0,,0xFA21
0.137806928000000,0,,0xFD3D
0.137866648000000,0,,0xFE4F
0.137926656000000,0,,0xFDFE
0.137986896000000,0,,0xFC53
0.138047032000000,0,,0xFE53
0.138106656000000,0,,0xFDEF
0.138166664000000,0,,0xFC13
0.138226672000000,0,,0xFDF0
0.138286640000000,0,,0xD00D
0.138346984000000,0,,0xFA22
0.138406664000000,0,,0xFD40
0.138466912000000,0,,0xFE51
0.138526640000000,0,,0xFE01
0.138586632000000,0,,0xFC5B
0.138647240000000,0,,0xFE59
0.138706632000000,0,,0xFDF0
0.138766632000000,0,,0xFC12
0.138826640000000,0,,0xFE15
0.138886640000000,0,,0xD00D
0.138972640000000,0,,0xFA1F
0.139032632000000,0,,0xFD39
0.139092640000000,0,,0xFE50
0.139152640000000,0,,0xFDFC
0.139213208000000,0,,0xFC5F
0.139272640000000,0,,0xFE63
0.139332640000000,0,,0xFDF3
0.139392768000000,0,,0xFC08
0.139452640000000,0,,0xFE27
0.139512984000000,0,,0xD00D
0.139572648000000,0,,0xFA2E
0.139632640000000,0,,0xFD33
0.139692640000000,0,,0xFE4F
0.139752640000000,0,,0xFDF9
0.139813000000000,0,,0xFC50
0.139872920000000,0,,0xFE6B
0.139932640000000,0,,0xFDF4
0.139992632000000,0,,0xFC00
0.140052640000000,0,,0xFE33
0.140113112000000,0,,0xD00D
0.140198632000000,0,,0xFA39
0.140258648000000,0,,0xFD35
0.140318640000000,0,,0xFE52
0.140378640000000,0,,0xFDF6
0.140438912000000,0,,0xFC52
0.140498640000000,0,,0xFE6B
0.140558640000000,0,,0xFDF3
0.140618912000000,0,,0xFC10
0.140678640000000,0,,0xFE3E
0.140738632000000,0,,0xD00D
0.140798640000000,0,,0xFA2F
0.140858648000000,0,,0xFD49
0.140918632000000,0,,0x0052
0.140978632000000,0,,0xFDF3
0.141038640000000,0,,0xFC55
0.141098912000000,0,,0xFE62
0.141158640000000,0,,0xFDEE
0.141218632000000,0,,0xFC24
0.141278992000000,0,,0xFE41
0.141338640000000,0,,0xD00D
0.141424632000000,0,,0xFA26
0.141484640000000,0,,0xFD49
0.141544648000000,0,,0xFE54
0.141604640000000,0,,0xFDFD
0.141664704000000,0,,0xFC5F
0.141724632000000,0,,0xFE5F
0.141784640000000,0,,0xFDF1
0.141844912000000,0,,0xFC19
0.141904632000000,0,,0xFE42
0.141964640000000,0,,0xD00D
0.142024632000000,0,,0xFA2A
0.142084640000000,0,,0xFD3F
0.142144632000000,0,,0x0050
0.142204632000000,0,,0xFDFA
0.142264632000000,0,,0xFC4B
0.142324680000000,0,,0xFE65
0.142384640000000,0,,0xFDF3
0.142444632000000,0,,0xFC19
0.142504880000000,0,,0xFE48
0.142564648000000,0,,0xD00D
0.142650632000000,0,,0xFA2C
0.142710672000000,0,,0xFD4D
0.142770672000000,0,,0x004C
0.142830640000000,0,,0xFDF4
0.142890632000000,0,,0xFC55
0.142950640000000,0,,0x005E
0.143010640000000,0,,0xFDEF
0.143070888000000,0,,0xFC28
0.143130640000000,0,,0xFE48
0.143190640000000,0,,0xD00D
0.143250640000000,0,,0xFA21
0.143310640000000,0,,0xFD4B
0.143370640000000,0,,0xFF0E
