Time [s],Packet ID,MOSI,MISO
0.012397328000000,0,,0x8719
0.012457224000000,0,,0x9F53
0.012517176000000,0,,0xA3DB
0.012577152000000,0,,0x8420
0.012637128000000,0,,0xABCB
0.012697120000000,0,,0xAEAF
0.012757104000000,0,,0xB512
0.012817128000000,0,,0xA93C
0.012877336000000,0,,0xAB28
0.012937120000000,0,,0xD00D
0.012997112000000,0,,0x8707
0.013057400000000,0,,0x9B5A
0.013117128000000,0,,0xA085
0.013177120000000,0,,0x69ED
0.013237224000000,0,,0xA838
0.013297160000000,0,,0xAC20
0.013357128000000,0,,0xB384
0.013417120000000,0,,0xA8A8
0.013477216000000,0,,0xAAB1
0.013537248000000,0,,0xD00D
0.013623392000000,0,,0x86F2
0.013683264000000,0,,0x97CE
0.013743344000000,0,,0x9D8A
0.013803120000000,0,,0x526F
0.013863120000000,0,,0xA523
0.013923120000000,0,,0xA9EA
0.013983112000000,0,,0xB231
0.014043184000000,0,,0xA826
0.014103216000000,0,,0xAA4B
0.014163120000000,0,,0xD00D
0.014223120000000,0,,0x86E2
0.014283392000000,0,,0x956A
0.014343104000000,0,,0x9B8B
0.014403120000000,0,,0x42C8
0.014463104000000,0,,0xA31E
0.014523112000000,0,,0xA875
0.014583120000000,0,,0xB153
0.014643192000000,0,,0xA7CA
0.014703120000000,0,,0xAA06
0.014763112000000,0,,0xD00D
0.014849536000000,0,,0x86D8
0.014909488000000,0,,0x941A
0.014969136000000,0,,0x9A6D
0.015029480000000,0,,0x3A67
0.015089224000000,0,,0xA1FD
0.015149232000000,0,,0xA7A3
0.015209448000000,0,,0xB0D4
0.015269304000000,0,,0xA791
0.015329208000000,0,,0xA9DF
0.015389208000000,0,,0xD00D
0.015449152000000,0,,0x86D1
0.015509608000000,0,,0x9435
0.015569128000000,0,,0x9A7E
0.015629176000000,0,,0x3BE9
0.015689240000000,0,,0xA215
0.015749312000000,0,,0xA7B1
0.015809224000000,0,,0xB0D7
0.015869168000000,0,,0xA797
0.015929136000000,0,,0xA9DF
0.015989584000000,0,,0xD00C
0.016075184000000,0,,0x86D0
0.016135152000000,0,,0x960C
0.016195104000000,0,,0x9C00
0.016255472000000,0,,0x4916
0.016315120000000,0,,0xA3AC
0.016375632000000,0,,0xA8D5
0.016435088000000,0,,0xB17D
0.016495216000000,0,,0xA7DC
0.016555096000000,0,,0xAA10
0.016615088000000,0,,0xD00D
0.016675120000000,0,,0x86D7
0.016735216000000,0,,0x993A
0.016795112000000,0,,0x9EA7
0.016855176000000,0,,0x5F1B
0.016915328000000,0,,0xA66F
0.016975360000000,0,,0xAAC9
0.017035088000000,0,,0xB2A6
0.017095096000000,0,,0xA854
0.017155096000000,0,,0xAA69
0.017215112000000,0,,0xD00D
0.017301304000000,0,,0x86E7
0.017361200000000,0,,0x9CAF
0.017421096000000,0,,0xA190
0.017481552000000,0,,0x768B
0.017541488000000,0,,0xA98E
0.017601112000000,0,,0xAD00
0.017661408000000,0,,0xB3FC
0.017721096000000,0,,0xA8D1
0.017781128000000,0,,0xAACF
0.017841480000000,0,,0xD00D
0.017901528000000,0,,0x86E9
0.017961592000000,0,,0xA0CE
0.018022208000000,0,,0xA529
0.018083816000000,0,,0x911C
0.018147120000000,0,,0xAD91
0.018207784000000,0,,0xADCB
0.018274184000000,0,,0xB579
0.018336760000000,0,,0xA95A
0.018401136000000,0,,0xAA0D
0.018467592000000,0,,0xD007
0.018553160000000,0,,0x8707
0.018613224000000,0,,0xA4C0
0.018673232000000,0,,0xA884
0.018733376000000,0,,0xA90A
0.018793512000000,0,,0xB1A0
0.018853312000000,0,,0xB30A
0.018913320000000,0,,0xB7BB
0.018973264000000,0,,0xAA35
0.019033176000000,0,,0xABF5
0.019093336000000,0,,0xD01A
0.019153728000000,0,,0x870C
0.019214352000000,0,,0xA80C
0.019274472000000,0,,0xAB68
0.019334112000000,0,,0xBAF8
0.019394288000000,0,,0xB4FB
0.019454232000000,0,,0xB59C
0.019514352000000,0,,0xB96D
0.019574368000000,0,,0xAB01
0.019634432000000,0,,0xAC8D
0.019694112000000,0,,0xD00D
0.019780096000000,0,,0x872B
0.019840384000000,0,,0xAA2C
0.019900080000000,0,,0xAD51
0.019960096000000,0,,0xC620
0.020020080000000,0,,0xB719
0.020080080000000,0,,0xB745
0.020140384000000,0,,0xBA8B
0.020200160000000,0,,0xAB85
0.020260080000000,0,,0xACF3
0.020320088000000,0,,0xD00D
0.020380472000000,0,,0x873C
0.020440576000000,0,,0xAA45
0.020500192000000,0,,0xAD67
0.020560088000000,0,,0xC697
0.020620160000000,0,,0xB719
0.020680096000000,0,,0xB743
0.020740384000000,0,,0xBA87
0.020800080000000,0,,0xAB82
0.020860120000000,0,,0xACF0
0.020920072000000,0,,0xD00D
0.021006472000000,0,,0x8738
0.021066088000000,0,,0xA818
0.021126368000000,0,,0xAB79
0.021186096000000,0,,0xBA9C
0.021246088000000,0,,0xB4B4
0.021306464000000,0,,0xB561
0.021366080000000,0,,0xB945
0.021426088000000,0,,0xAB01
0.021486088000000,0,,0xAC82
0.021546256000000,0,,0xD00C
0.021606648000000,0,,0x872C
0.021666080000000,0,,0xA51A
0.021726088000000,0,,0xA8D9
0.021786360000000,0,,0xA92C
0.021846088000000,0,,0xB17B
0.021906392000000,0,,0xB2E0
0.021966080000000,0,,0xB7AB
0.022026088000000,0,,0xAA51
0.022086080000000,0,,0xABF9
0.022146088000000,0,,0xD00D
0.022232088000000,0,,0x871E
0.022292080000000,0,,0xA232
0.022352352000000,0,,0xA654
0.022412080000000,0,,0x96C6
0.022472472000000,0,,0xAE9C
0.022532080000000,0,,0xB0B9
0.022592080000000,0,,0xB655
0.022652080000000,0,,0xA9BA
0.022712088000000,0,,0xAB8C
0.022772376000000,0,,0xD00D
0.022832160000000,0,,0x8712
0.022892080000000,0,,0x9DF0
0.022952080000000,0,,0xA2B3
0.023012352000000,0,,0x7A9F
0.023072464000000,0,,0xAAAA
0.023132080000000,0,,0xADDF
0.023192072000000,0,,0xB498
0.023252080000000,0,,0xA906
0.023312080000000,0,,0xAB03
0.023372416000000,0,,0xD00D
0.023458080000000,0,,0x86FF
0.023518072000000,0,,0x992A
0.023578328000000,0,,0x9EB0
0.023638080000000,0,,0x5B37
0.023698080000000,0,,0xA661
0.023758080000000,0,,0xAAD1
0.023818072000000,0,,0xB2BE
0.023878072000000,0,,0xA857
0.023938440000000,0,,0xAA75
0.023998072000000,0,,0xD00D
0.024058072000000,0,,0x86E7
0.024118072000000,0,,0x95C7
0.024178080000000,0,,0x9BDC
0.024238696000000,0,,0x451E
0.024298080000000,0,,0xA36E
0.024358080000000,0,,0xA8B1
0.024418072000000,0,,0xB179
0.024478088000000,0,,0xA7D4
0.024538488000000,0,,0xAA11
0.024598072000000,0,,0xD00D
0.024684096000000,0,,0x86D7
0.024744088000000,0,,0x9400
0.024804320000000,0,,0x9A5D
0.024864088000000,0,,0x39E4
0.024924096000000,0,,0xA1EC
0.024984088000000,0,,0xA795
0.025044088000000,0,,0xB0CF
0.025104168000000,0,,0xA783
0.025164096000000,0,,0xA9DE
0.025224096000000,0,,0xD00D
0.025284168000000,0,,0x86CE
0.025344136000000,0,,0x93A4
0.025404168000000,0,,0x9A06
0.025464400000000,0,,0x37FE
0.025524104000000,0,,0xA19D
0.025584168000000,0,,0xA759
0.025644168000000,0,,0xB0A4
0.025704432000000,0,,0xA770
0.025764160000000,0,,0xA9CE
0.025824096000000,0,,0xD00D
0.025910056000000,0,,0x86CE
0.025970056000000,0,,0x9523
0.026030112000000,0,,0x9B39
0.026090048000000,0,,0x4252
0.026150048000000,0,,0xA2E2
0.026210288000000,0,,0xA83D
0.026270056000000,0,,0xB127
0.026330048000000,0,,0xA7A8
0.026390056000000,0,,0xA9F3
0.026450072000000,0,,0xD00D
0.026510064000000,0,,0x86D4
0.026570048000000,0,,0x97DC
0.026630048000000,0,,0x9D7A
0.026690144000000,0,,0x5520
0.026750048000000,0,,0xA53C
0.026810064000000,0,,0xA9E4
0.026870656000000,0,,0xB222
0.026930048000000,0,,0xA807
0.026990048000000,0,,0xAA3E
0.027050048000000,0,,0xD00D
0.027136064000000,0,,0x86E0
0.027196072000000,0,,0x9B89
0.027256064000000,0,,0xA094
0.027316064000000,0,,0x6E54
0.027376064000000,0,,0xA88B
0.027436336000000,0,,0xAC40
0.027496072000000,0,,0xB38D
0.027556056000000,0,,0xA88F
0.027616336000000,0,,0xAAAB
0.027676064000000,0,,0xD00D
0.027736064000000,0,,0x86F1
0.027796064000000,0,,0x9FD6
0.027856056000000,0,,0xA43F
0.027916064000000,0,,0x8AE0
0.027976072000000,0,,0xACAD
0.028036056000000,0,,0xAF44
0.028096336000000,0,,0xB55F
0.028156056000000,0,,0xA94F
0.028216064000000,0,,0xAB39
0.028276336000000,0,,0xD00D
0.028362064000000,0,,0x8703
0.028422064000000,0,,0xA3FD
0.028482056000000,0,,0xA7D1
0.028542048000000,0,,0xA43D
0.028602056000000,0,,0xB0D9
0.028662144000000,0,,0xB266
0.028722064000000,0,,0xB757
0.028782048000000,0,,0xAA21
0.028842336000000,0,,0xABD8
0.028902056000000,0,,0xD00D
0.028962064000000,0,,0x8717
0.029022056000000,0,,0xA7D9
0.029082056000000,0,,0xAB36
0.029142056000000,0,,0xB9A9
0.029202056000000,0,,0xB4BE
0.029262056000000,0,,0xB56A
0.029322144000000,0,,0xB94E
0.029382048000000,0,,0xAAF4
0.029442056000000,0,,0xAC81
0.029502328000000,0,,0xD00D
0.029588056000000,0,,0x872C
0.029648056000000,0,,0xAA11
0.029708056000000,0,,0xAD34
0.029768048000000,0,,0xC50B
0.029828056000000,0,,0xB6EF
0.029888056000000,0,,0xB722
0.029948056000000,0,,0xBA74
0.030008048000000,0,,0xAB73
0.030068312000000,0,,0xACE9
0.030128056000000,0,,0xD00D
0.030188056000000,0,,0x873A
0.030248056000000,0,,0xAA37
0.030308048000000,0,,0xAD55
0.030368048000000,0,,0xC59D
0.030428056000000,0,,0xB702
0.030488048000000,0,,0xB730
0.030548048000000,0,,0xBA7E
0.030608048000000,0,,0xAB77
0.030668056000000,0,,0xACEC
0.030728296000000,0,,0xD00D
0.030814072000000,0,,0x873A
0.030874072000000,0,,0xA8CF
0.030934072000000,0,,0xAC10
0.030994064000000,0,,0xBE7E
0.031054072000000,0,,0xB56F
0.031114064000000,0,,0xB5EE
0.031174072000000,0,,0xB9A3
0.031234072000000,0,,0xAB1A
0.031294304000000,0,,0xAC9D
0.031354072000000,0,,0xD00D
0.031414072000000,0,,0x8731
0.031474072000000,0,,0xA5F0
0.031534072000000,0,,0xA992
0.031594064000000,0,,0xAE0E
0.031654072000000,0,,0xB265
0.031714064000000,0,,0xB396
0.031774064000000,0,,0xB81F
0.031834064000000,0,,0xAA81
0.031894064000000,0,,0xAC1E
0.031954296000000,0,,0xD00D
0.032040264000000,0,,0x8723
0.032100032000000,0,,0xA2CF
0.032160032000000,0,,0xA6DD
0.032220024000000,0,,0x9A71
0.032280040000000,0,,0xAF3C
0.032340024000000,0,,0xB134
0.032400032000000,0,,0xB6A3
0.032460024000000,0,,0xA9E2
0.032520088000000,0,,0xABA5
0.032580040000000,0,,0xD00D
0.032640032000000,0,,0x8717
0.032700280000000,0,,0x9FE9
0.032760032000000,0,,0xA465
0.032820032000000,0,,0x8771
0.032880040000000,0,,0xAC8C
0.032940032000000,0,,0xAF3C
0.033000024000000,0,,0xB56F
0.033060016000000,0,,0xA95F
0.033120056000000,0,,0xAB46
0.033180032000000,0,,0xD00D
0.033266312000000,0,,0x8709
0.033326040000000,0,,0x9C90
0.033386048000000,0,,0xA198
0.033446048000000,0,,0x7161
0.033506032000000,0,,0xA994
0.033566040000000,0,,0xAD20
0.033626040000000,0,,0xB428
0.033686040000000,0,,0xA8E8
0.033746032000000,0,,0xAAE5
0.033806032000000,0,,0xD00D
0.033866040000000,0,,0x86FA
0.033926320000000,0,,0x97C5
0.033986040000000,0,,0x9D8F
0.034046032000000,0,,0x5211
0.034106312000000,0,,0xA54A
0.034166040000000,0,,0xAA0C
0.034226048000000,0,,0xB24B
0.034286032000000,0,,0xA832
0.034346032000000,0,,0xAA54
0.034406048000000,0,,0xD00D
0.034492096000000,0,,0x86E2
0.034552016000000,0,,0x94E3
0.034612032000000,0,,0x9B1C
0.034672312000000,0,,0x3F4F
0.034732024000000,0,,0xA2BA
0.034792032000000,0,,0xA830
0.034852016000000,0,,0xB12A
0.034912032000000,0,,0xA7B7
0.034972032000000,0,,0xA9FB
0.035032024000000,0,,0xD00D
0.035092032000000,0,,0x86D5
0.035152056000000,0,,0x93ED
0.035212032000000,0,,0x9A43
0.035272032000000,0,,0x397F
0.035332280000000,0,,0xA1DC
0.035392032000000,0,,0xA78A
0.035452032000000,0,,0xB0C2
0.035512024000000,0,,0xA787
0.035572032000000,0,,0xA9D9
0.035632032000000,0,,0xD00D
0.035718288000000,0,,0x86D0
0.035778032000000,0,,0x94DE
0.035838032000000,0,,0x9B02
0.035898272000000,0,,0x406E
0.035958032000000,0,,0xA2B0
0.036018072000000,0,,0xA81C
0.036078024000000,0,,0xB113
0.036138032000000,0,,0xA7A5
0.036198032000000,0,,0xA9EF
0.036258024000000,0,,0xD00D
0.036318008000000,0,,0x86D3
0.036378568000000,0,,0x972D
0.036438032000000,0,,0x9CED
0.036498024000000,0,,0x50BC
0.036558264000000,0,,0xA4B1
0.036618040000000,0,,0xA985
0.036678024000000,0,,0xB1E7
0.036738024000000,0,,0xA7F6
0.036798024000000,0,,0xAA2D
0.036858024000000,0,,0xD00D
0.036944048000000,0,,0x86DF
0.037004048000000,0,,0x9AC1
0.037064040000000,0,,0x9FE5
0.037124280000000,0,,0x6909
0.037184280000000,0,,0xA7CF
0.037244040000000,0,,0xABBF
0.037304184000000,0,,0xB33A
0.037364048000000,0,,0xA87B
0.037424048000000,0,,0xAA92
0.037484168000000,0,,0xD00D
0.037544032000000,0,,0x86F0
0.037604048000000,0,,0x9E8E
0.037664040000000,0,,0xA31F
0.037724088000000,0,,0x8288
0.037784304000000,0,,0xAB5C
0.037844040000000,0,,0xAE4C
0.037904096000000,0,,0xB4C5
0.037964048000000,0,,0xA912
0.038024040000000,0,,0xAB09
0.038084088000000,0,,0xD00D
0.038170000000000,0,,0x86FF
0.038230000000000,0,,0xA1C4
0.038290008000000,0,,0xA5E2
0.038350424000000,0,,0x96D3
0.038410040000000,0,,0xAE92
0.038470000000000,0,,0xB0AE
0.038530280000000,0,,0xB642
0.038590008000000,0,,0xA9A7
0.038650280000000,0,,0xAB7F
0.038710000000000,0,,0xD00D
0.038770000000000,0,,0x870D
0.038830000000000,0,,0xA4DB
0.038890000000000,0,,0xA89B
0.038950248000000,0,,0xA845
0.039010000000000,0,,0xB1B2
0.039070000000000,0,,0xB315
0.039130000000000,0,,0xB7D4
0.039190272000000,0,,0xAA4B
0.039250152000000,0,,0xAC06
0.039310016000000,0,,0xD00D
0.039396024000000,0,,0x871D
0.039456008000000,0,,0xA86F
0.039516376000000,0,,0xABC5
0.039576016000000,0,,0xBC02
0.039636016000000,0,,0xB54B
0.039696008000000,0,,0xB5DE
0.039756288000000,0,,0xB9A4
0.039816512000000,0,,0xAB0F
0.039876016000000,0,,0xACA4
0.039936280000000,0,,0xD00D
0.039996016000000,0,,0x8731
0.040056016000000,0,,0xAA12
0.040116384000000,0,,0xAD37
0.040176008000000,0,,0xC533
0.040236008000000,0,,0xB6E8
0.040296008000000,0,,0xB71E
0.040356008000000,0,,0xBA73
0.040416520000000,0,,0xAB70
0.040476008000000,0,,0xACE9
0.040536008000000,0,,0xD00D
0.040622008000000,0,,0x8739
0.040682640000000,0,,0xA950
0.040742016000000,0,,0xAC8A
0.040802008000000,0,,0xC165
0.040862016000000,0,,0xB607
0.040922016000000,0,,0xB66A
0.040982352000000,0,,0xB9F9
0.041042016000000,0,,0xAB47
0.041102008000000,0,,0xACBD
0.041162240000000,0,,0xD00D
0.041222008000000,0,,0x8733
0.041282464000000,0,,0xA70F
0.041342008000000,0,,0xAA8B
0.041402136000000,0,,0xB496
0.041462000000000,0,,0xB38E
0.041522008000000,0,,0xB47B
0.041582368000000,0,,0xB8B3
0.041642008000000,0,,0xAABC
0.041702008000000,0,,0xAC4F
0.041762000000000,0,,0xD00D
0.041848352000000,0,,0x8729
0.041908008000000,0,,0xA337
0.041968000000000,0,,0xA733
0.042028008000000,0,,0x9D10
0.042088000000000,0,,0xAF94
0.042148320000000,0,,0xB17B
0.042208000000000,0,,0xB6CD
0.042268008000000,0,,0xA9F1
0.042328000000000,0,,0xABB3
0.042388256000000,0,,0xD00D
0.042448360000000,0,,0x8718
0.042508000000000,0,,0x9ED6
0.042568008000000,0,,0xA372
0.042628008000000,0,,0x80D6
0.042687992000000,0,,0xAB62
0.042748000000000,0,,0xAE64
0.042808008000000,0,,0xB4E6
0.042868008000000,0,,0xA92B
0.042928000000000,0,,0xAB1B
0.042987992000000,0,,0xD00D
0.043074024000000,0,,0x8705
0.043134024000000,0,,0x9AA6
0.043194016000000,0,,0x9FE8
0.043254024000000,0,,0x6513
0.043314016000000,0,,0xA79F
0.043374064000000,0,,0xABAD
0.043434024000000,0,,0xB341
0.043494016000000,0,,0xA883
0.043554024000000,0,,0xAA9B
0.043614432000000,0,,0xD00D
0.043674016000000,0,,0x86F1
0.043734016000000,0,,0x9719
0.043794016000000,0,,0x9CEE
0.043854024000000,0,,0x4D87
0.043914336000000,0,,0xA48A
0.043974024000000,0,,0xA977
0.044034016000000,0,,0xB1ED
0.044094016000000,0,,0xA7FC
0.044154016000000,0,,0xAA35
0.044214360000000,0,,0xD00D
0.044299984000000,0,,0x86DF
0.044360216000000,0,,0x9498
0.044419992000000,0,,0x9AD8
0.044479976000000,0,,0x3D49
0.044539984000000,0,,0xA269
0.044599984000000,0,,0xA7F1
0.044659968000000,0,,0xB104
0.044719976000000,0,,0xA7A0
0.044779976000000,0,,0xA9EE
0.044839984000000,0,,0xD00D
0.044899976000000,0,,0x86D4
0.044959968000000,0,,0x9385
0.045020248000000,0,,0x99ED
0.045080312000000,0,,0x3699
0.045139976000000,0,,0xA17D
0.045199968000000,0,,0xA746
0.045259976000000,0,,0xB09C
0.045319976000000,0,,0xA778
0.045380304000000,0,,0xA9CD
0.045439976000000,0,,0xD00D
0.045526000000000,0,,0x86CF
0.045586248000000,0,,0x940A
0.045645976000000,0,,0x9A59
0.045705984000000,0,,0x3ADA
0.045766256000000,0,,0xA1F2
0.045825992000000,0,,0xA79A
0.045885984000000,0,,0xB0C9
0.045945992000000,0,,0xA792
0.046005992000000,0,,0xA9DB
0.046065992000000,0,,0xD00D
0.046125992000000,0,,0x86D1
0.046185984000000,0,,0x9644
0.046246632000000,0,,0x9C31
0.046305992000000,0,,0x4AA5
0.046365992000000,0,,0xA3E5
0.046426264000000,0,,0xA8FC
0.046485984000000,0,,0xB197
0.046545984000000,0,,0xA7E9
0.046605992000000,0,,0xAA18
0.046665984000000,0,,0xD00D
0.046751992000000,0,,0x86D9
0.046811992000000,0,,0x9932
0.046871976000000,0,,0x9E9E
0.046931984000000,0,,0x5EE7
0.046992224000000,0,,0xA66F
0.047051984000000,0,,0xAAC5
0.047111984000000,0,,0xB2A7
0.047171984000000,0,,0xA84F
0.047231984000000,0,,0xAA67
0.047291976000000,0,,0xD00D
0.047351984000000,0,,0x86E6
0.047411976000000,0,,0x9CEB
0.047471984000000,0,,0xA1BF
0.047531984000000,0,,0x77D0
0.047591984000000,0,,0xA9D5
0.047652216000000,0,,0xAD32
0.047711968000000,0,,0xB41A
0.047771976000000,0,,0xA8D8
0.047831984000000,0,,0xAAD5
0.047891976000000,0,,0xD00D
0.047977984000000,0,,0x86F7
0.048037984000000,0,,0xA17B
0.048097976000000,0,,0xA5A2
0.048157976000000,0,,0x9512
0.048218216000000,0,,0xAE4D
0.048277984000000,0,,0xB07A
0.048337968000000,0,,0xB61C
0.048397976000000,0,,0xA9A2
0.048457976000000,0,,0xAB73
0.048517976000000,0,,0xD00D
0.048577976000000,0,,0x870C
0.048637968000000,0,,0xA5D9
0.048697976000000,0,,0xA96D
0.048757976000000,0,,0xAEB2
0.048817976000000,0,,0xB2B7
0.048878216000000,0,,0xB3D7
0.048937968000000,0,,0xB845
0.048997976000000,0,,0xAA84
0.049057984000000,0,,0xAC26
0.049117984000000,0,,0xD00D
0.049203992000000,0,,0x8722
0.049264000000000,0,,0xA8E2
0.049324000000000,0,,0xAC22
0.049384000000000,0,,0xBF15
0.049444120000000,0,,0xB5CA
0.049504000000000,0,,0xB63C
0.049564000000000,0,,0xB9DB
0.049623992000000,0,,0xAB2A
0.049683992000000,0,,0xACB2
0.049743984000000,0,,0xD00D
0.049804000000000,0,,0x8734
0.049863992000000,0,,0xAA55
0.049923992000000,0,,0xAD70
0.049983992000000,0,,0xC6D8
0.050044008000000,0,,0xB737
0.050104160000000,0,,0xB758
0.050164064000000,0,,0xBA98
0.050224008000000,0,,0xAB74
0.050284072000000,0,,0xACF5
0.050343992000000,0,,0xD00D
0.050429952000000,0,,0x873C
0.050489952000000,0,,0xA9EE
0.050549976000000,0,,0xAD14
0.050609952000000,0,,0xC4C2
0.050669992000000,0,,0xB6B2
0.050729960000000,0,,0xB6E9
0.050789952000000,0,,0xBA4F
0.050850224000000,0,,0xAB52
0.050909960000000,0,,0xACDA
0.050969960000000,0,,0xD00D
0.051029952000000,0,,0x8737
0.051089952000000,0,,0xA80D
0.051149944000000,0,,0xAB67
0.051209952000000,0,,0xBA69
0.051269968000000,0,,0xB49D
0.051329960000000,0,,0xB545
0.051389952000000,0,,0xB935
0.051449944000000,0,,0xAADF
0.051510232000000,0,,0xAC79
0.051569952000000,0,,0xD00D
0.051655960000000,0,,0x872D
0.051715968000000,0,,0xA4AC
0.051775960000000,0,,0xA875
0.051835960000000,0,,0xA633
0.051895968000000,0,,0xB10F
0.051955968000000,0,,0xB290
0.052015968000000,0,,0xB77A
0.052076224000000,0,,0xAA2F
0.052135960000000,0,,0xABE9
0.052195960000000,0,,0xD00D
0.052256208000000,0,,0x871F
0.052315960000000,0,,0xA0AF
0.052375960000000,0,,0xA509
0.052435960000000,0,,0x8D02
0.052495968000000,0,,0xAD24
0.052555968000000,0,,0xAFA6
0.052615960000000,0,,0xB5AD
0.052675952000000,0,,0xA96F
0.052736184000000,0,,0xAB59
0.052795968000000,0,,0xD00D
0.052881960000000,0,,0x870D
0.052941968000000,0,,0x9C55
0.053001960000000,0,,0xA157
0.053061960000000,0,,0x7060
0.053121960000000,0,,0xA924
0.053181960000000,0,,0xACBF
0.053241960000000,0,,0xB3EA
0.053301960000000,0,,0xA8B8
0.053361952000000,0,,0xAACF
0.053421952000000,0,,0xD00D
0.053482200000000,0,,0x86F7
0.053541960000000,0,,0x989E
0.053601960000000,0,,0x9E36
0.053661960000000,0,,0x57C4
0.053721952000000,0,,0xA5DE
0.053781968000000,0,,0xAA69
0.053841952000000,0,,0xB27F
0.053901952000000,0,,0xA82F
0.053961960000000,0,,0xAA60
0.054021952000000,0,,0xD00D
0.054107952000000,0,,0x86E7
0.054167960000000,0,,0x958E
0.054228232000000,0,,0x9BA4
0.054287960000000,0,,0x439C
0.054347952000000,0,,0xA33B
0.054407960000000,0,,0xA889
0.054467960000000,0,,0xB15E
0.054528008000000,0,,0xA7C1
0.054587952000000,0,,0xAA09
0.054647952000000,0,,0xD00D
0.054708224000000,0,,0x86D9
0.054767952000000,0,,0x93DC
0.054827952000000,0,,0x9A37
0.054888224000000,0,,0x38C3
0.054947952000000,0,,0xA1C8
0.055007952000000,0,,0xA77E
0.055067952000000,0,,0xB0BD
0.055127944000000,0,,0xA782
0.055187952000000,0,,0xA9D7
0.055247960000000,0,,0xD00D
0.055333976000000,0,,0x86D1
0.055393968000000,0,,0x93F2
0.055453976000000,0,,0x9A43
0.055513968000000,0,,0x39CF
0.055573968000000,0,,0xA1E0
0.055633968000000,0,,0xA78A
0.055693968000000,0,,0xB0C1
0.055753976000000,0,,0xA784
0.055813968000000,0,,0xA9D7
0.055873968000000,0,,0xD00D
0.055934064000000,0,,0x86D1
0.055993952000000,0,,0x957F
0.056054040000000,0,,0x9B84
